Freq.	V(out)
1.00000000000000e+000	(-2.95557850462403e+001dB,8.80755183976743e+001°)
1.00230523807790e+000	(-2.95358072530370e+001dB,8.80711645021888e+001°)
1.00461579027840e+000	(-2.95158295622047e+001dB,8.80668004102710e+001°)
1.00693166885180e+000	(-2.94958519742150e+001dB,8.80624260989908e+001°)
1.00925288607668e+000	(-2.94758744895415e+001dB,8.80580415453656e+001°)
1.01157945425990e+000	(-2.94558971086603e+001dB,8.80536467263601e+001°)
1.01391138573668e+000	(-2.94359198320492e+001dB,8.80492416188856e+001°)
1.01624869287070e+000	(-2.94159426601887e+001dB,8.80448261998008e+001°)
1.01859138805412e+000	(-2.93959655935612e+001dB,8.80404004459108e+001°)
1.02093948370768e+000	(-2.93759886326513e+001dB,8.80359643339677e+001°)
1.02329299228075e+000	(-2.93560117779460e+001dB,8.80315178406700e+001°)
1.02565192625141e+000	(-2.93360350299344e+001dB,8.80270609426628e+001°)
1.02801629812647e+000	(-2.93160583891080e+001dB,8.80225936165373e+001°)
1.03038612044162e+000	(-2.92960818559604e+001dB,8.80181158388313e+001°)
1.03276140576140e+000	(-2.92761054309875e+001dB,8.80136275860284e+001°)
1.03514216667934e+000	(-2.92561291146875e+001dB,8.80091288345586e+001°)
1.03752841581801e+000	(-2.92361529075609e+001dB,8.80046195607973e+001°)
1.03992016582906e+000	(-2.92161768101106e+001dB,8.80000997410662e+001°)
1.04231742939330e+000	(-2.91962008228416e+001dB,8.79955693516322e+001°)
1.04472021922080e+000	(-2.91762249462613e+001dB,8.79910283687081e+001°)
1.04712854805090e+000	(-2.91562491808795e+001dB,8.79864767684521e+001°)
1.04954242865232e+000	(-2.91362735272083e+001dB,8.79819145269675e+001°)
1.05196187382322e+000	(-2.91162979857621e+001dB,8.79773416203030e+001°)
1.05438689639126e+000	(-2.90963225570577e+001dB,8.79727580244524e+001°)
1.05681750921366e+000	(-2.90763472416144e+001dB,8.79681637153543e+001°)
1.05925372517729e+000	(-2.90563720399536e+001dB,8.79635586688925e+001°)
1.06169555719872e+000	(-2.90363969525993e+001dB,8.79589428608952e+001°)
1.06414301822431e+000	(-2.90164219800780e+001dB,8.79543162671354e+001°)
1.06659612123026e+000	(-2.89964471229183e+001dB,8.79496788633305e+001°)
1.06905487922266e+000	(-2.89764723816515e+001dB,8.79450306251426e+001°)
1.07151930523761e+000	(-2.89564977568113e+001dB,8.79403715281776e+001°)
1.07398941234124e+000	(-2.89365232489337e+001dB,8.79357015479860e+001°)
1.07646521362983e+000	(-2.89165488585573e+001dB,8.79310206600620e+001°)
1.07894672222983e+000	(-2.88965745862231e+001dB,8.79263288398440e+001°)
1.08143395129794e+000	(-2.88766004324747e+001dB,8.79216260627141e+001°)
1.08392691402120e+000	(-2.88566263978581e+001dB,8.79169123039981e+001°)
1.08642562361706e+000	(-2.88366524829218e+001dB,8.79121875389652e+001°)
1.08893009333343e+000	(-2.88166786882168e+001dB,8.79074517428283e+001°)
1.09144033644876e+000	(-2.87967050142967e+001dB,8.79027048907436e+001°)
1.09395636627209e+000	(-2.87767314617176e+001dB,8.78979469578103e+001°)
1.09647819614318e+000	(-2.87567580310382e+001dB,8.78931779190710e+001°)
1.09900583943252e+000	(-2.87367847228198e+001dB,8.78883977495110e+001°)
1.10153930954141e+000	(-2.87168115376260e+001dB,8.78836064240586e+001°)
1.10407861990207e+000	(-2.86968384760233e+001dB,8.78788039175848e+001°)
1.10662378397766e+000	(-2.86768655385808e+001dB,8.78739902049034e+001°)
1.10917481526240e+000	(-2.86568927258699e+001dB,8.78691652607702e+001°)
1.11173172728159e+000	(-2.86369200384650e+001dB,8.78643290598839e+001°)
1.11429453359173e+000	(-2.86169474769429e+001dB,8.78594815768852e+001°)
1.11686324778056e+000	(-2.85969750418831e+001dB,8.78546227863569e+001°)
1.11943788346715e+000	(-2.85770027338678e+001dB,8.78497526628240e+001°)
1.12201845430196e+000	(-2.85570305534818e+001dB,8.78448711807532e+001°)
1.12460497396692e+000	(-2.85370585013127e+001dB,8.78399783145531e+001°)
1.12719745617551e+000	(-2.85170865779507e+001dB,8.78350740385738e+001°)
1.12979591467280e+000	(-2.84971147839887e+001dB,8.78301583271070e+001°)
1.13240036323556e+000	(-2.84771431200223e+001dB,8.78252311543859e+001°)
1.13501081567231e+000	(-2.84571715866500e+001dB,8.78202924945848e+001°)
1.13762728582343e+000	(-2.84372001844729e+001dB,8.78153423218192e+001°)
1.14024978756117e+000	(-2.84172289140949e+001dB,8.78103806101458e+001°)
1.14287833478977e+000	(-2.83972577761227e+001dB,8.78054073335621e+001°)
1.14551294144553e+000	(-2.83772867711657e+001dB,8.78004224660061e+001°)
1.14815362149688e+000	(-2.83573158998361e+001dB,8.77954259813570e+001°)
1.15080038894443e+000	(-2.83373451627490e+001dB,8.77904178534342e+001°)
1.15345325782109e+000	(-2.83173745605222e+001dB,8.77853980559975e+001°)
1.15611224219210e+000	(-2.82974040937766e+001dB,8.77803665627471e+001°)
1.15877735615512e+000	(-2.82774337631356e+001dB,8.77753233473233e+001°)
1.16144861384034e+000	(-2.82574635692257e+001dB,8.77702683833065e+001°)
1.16412602941049e+000	(-2.82374935126761e+001dB,8.77652016442170e+001°)
1.16680961706096e+000	(-2.82175235941191e+001dB,8.77601231035148e+001°)
1.16949939101987e+000	(-2.81975538141896e+001dB,8.77550327345997e+001°)
1.17219536554813e+000	(-2.81775841735258e+001dB,8.77499305108110e+001°)
1.17489755493953e+000	(-2.81576146727686e+001dB,8.77448164054273e+001°)
1.17760597352080e+000	(-2.81376453125617e+001dB,8.77396903916666e+001°)
1.18032063565173e+000	(-2.81176760935520e+001dB,8.77345524426861e+001°)
1.18304155572516e+000	(-2.80977070163893e+001dB,8.77294025315819e+001°)
1.18576874816716e+000	(-2.80777380817264e+001dB,8.77242406313892e+001°)
1.18850222743702e+000	(-2.80577692902190e+001dB,8.77190667150816e+001°)
1.19124200802737e+000	(-2.80378006425258e+001dB,8.77138807555719e+001°)
1.19398810446427e+000	(-2.80178321393087e+001dB,8.77086827257109e+001°)
1.19674053130724e+000	(-2.79978637812325e+001dB,8.77034725982881e+001°)
1.19949930314938e+000	(-2.79778955689650e+001dB,8.76982503460313e+001°)
1.20226443461741e+000	(-2.79579275031772e+001dB,8.76930159416063e+001°)
1.20503594037179e+000	(-2.79379595845431e+001dB,8.76877693576169e+001°)
1.20781383510678e+000	(-2.79179918137398e+001dB,8.76825105666049e+001°)
1.21059813355048e+000	(-2.78980241914474e+001dB,8.76772395410498e+001°)
1.21338885046497e+000	(-2.78780567183494e+001dB,8.76719562533687e+001°)
1.21618600064636e+000	(-2.78580893951321e+001dB,8.76666606759162e+001°)
1.21898959892486e+000	(-2.78381222224852e+001dB,8.76613527809844e+001°)
1.22179966016487e+000	(-2.78181552011014e+001dB,8.76560325408025e+001°)
1.22461619926504e+000	(-2.77981883316768e+001dB,8.76506999275369e+001°)
1.22743923115840e+000	(-2.77782216149103e+001dB,8.76453549132908e+001°)
1.23026877081238e+000	(-2.77582550515044e+001dB,8.76399974701045e+001°)
1.23310483322890e+000	(-2.77382886421646e+001dB,8.76346275699549e+001°)
1.23594743344451e+000	(-2.77183223875997e+001dB,8.76292451847554e+001°)
1.23879658653036e+000	(-2.76983562885217e+001dB,8.76238502863561e+001°)
1.24165230759241e+000	(-2.76783903456460e+001dB,8.76184428465432e+001°)
1.24451461177138e+000	(-2.76584245596911e+001dB,8.76130228370392e+001°)
1.24738351424294e+000	(-2.76384589313790e+001dB,8.76075902295026e+001°)
1.25025903021771e+000	(-2.76184934614348e+001dB,8.76021449955280e+001°)
1.25314117494141e+000	(-2.75985281505869e+001dB,8.75966871066455e+001°)
1.25602996369487e+000	(-2.75785629995674e+001dB,8.75912165343213e+001°)
1.25892541179416e+000	(-2.75585980091113e+001dB,8.75857332499567e+001°)
1.26182753459066e+000	(-2.75386331799573e+001dB,8.75802372248886e+001°)
1.26473634747115e+000	(-2.75186685128473e+001dB,8.75747284303893e+001°)
1.26765186585784e+000	(-2.74987040085266e+001dB,8.75692068376660e+001°)
1.27057410520854e+000	(-2.74787396677441e+001dB,8.75636724178611e+001°)
1.27350308101666e+000	(-2.74587754912520e+001dB,8.75581251420518e+001°)
1.27643880881134e+000	(-2.74388114798059e+001dB,8.75525649812500e+001°)
1.27938130415752e+000	(-2.74188476341649e+001dB,8.75469919064022e+001°)
1.28233058265602e+000	(-2.73988839550916e+001dB,8.75414058883894e+001°)
1.28528665994361e+000	(-2.73789204433521e+001dB,8.75358068980271e+001°)
1.28824955169313e+000	(-2.73589570997160e+001dB,8.75301949060647e+001°)
1.29121927361353e+000	(-2.73389939249565e+001dB,8.75245698831859e+001°)
1.29419584144998e+000	(-2.73190309198502e+001dB,8.75189318000083e+001°)
1.29717927098395e+000	(-2.72990680851773e+001dB,8.75132806270832e+001°)
1.30016957803328e+000	(-2.72791054217216e+001dB,8.75076163348957e+001°)
1.30316677845229e+000	(-2.72591429302706e+001dB,8.75019388938642e+001°)
1.30617088813183e+000	(-2.72391806116152e+001dB,8.74962482743409e+001°)
1.30918192299940e+000	(-2.72192184665500e+001dB,8.74905444466108e+001°)
1.31219989901920e+000	(-2.71992564958733e+001dB,8.74848273808923e+001°)
1.31522483219223e+000	(-2.71792947003870e+001dB,8.74790970473367e+001°)
1.31825673855640e+000	(-2.71593330808968e+001dB,8.74733534160283e+001°)
1.32129563418657e+000	(-2.71393716382118e+001dB,8.74675964569838e+001°)
1.32434153519466e+000	(-2.71194103731451e+001dB,8.74618261401527e+001°)
1.32739445772973e+000	(-2.70994492865134e+001dB,8.74560424354170e+001°)
1.33045441797808e+000	(-2.70794883791371e+001dB,8.74502453125909e+001°)
1.33352143216332e+000	(-2.70595276518404e+001dB,8.74444347414206e+001°)
1.33659551654643e+000	(-2.70395671054514e+001dB,8.74386106915847e+001°)
1.33967668742593e+000	(-2.70196067408018e+001dB,8.74327731326933e+001°)
1.34276496113786e+000	(-2.69996465587271e+001dB,8.74269220342886e+001°)
1.34586035405594e+000	(-2.69796865600668e+001dB,8.74210573658441e+001°)
1.34896288259164e+000	(-2.69597267456642e+001dB,8.74151790967649e+001°)
1.35207256319427e+000	(-2.69397671163663e+001dB,8.74092871963877e+001°)
1.35518941235103e+000	(-2.69198076730241e+001dB,8.74033816339799e+001°)
1.35831344658715e+000	(-2.68998484164926e+001dB,8.73974623787403e+001°)
1.36144468246594e+000	(-2.68798893476304e+001dB,8.73915293997985e+001°)
1.36458313658892e+000	(-2.68599304673005e+001dB,8.73855826662150e+001°)
1.36772882559584e+000	(-2.68399717763693e+001dB,8.73796221469807e+001°)
1.37088176616484e+000	(-2.68200132757076e+001dB,8.73736478110173e+001°)
1.37404197501251e+000	(-2.68000549661900e+001dB,8.73676596271767e+001°)
1.37720946889394e+000	(-2.67800968486952e+001dB,8.73616575642409e+001°)
1.38038426460288e+000	(-2.67601389241058e+001dB,8.73556415909222e+001°)
1.38356637897177e+000	(-2.67401811933084e+001dB,8.73496116758627e+001°)
1.38675582887188e+000	(-2.67202236571939e+001dB,8.73435677876344e+001°)
1.38995263121334e+000	(-2.67002663166571e+001dB,8.73375098947388e+001°)
1.39315680294529e+000	(-2.66803091725969e+001dB,8.73314379656072e+001°)
1.39636836105593e+000	(-2.66603522259163e+001dB,8.73253519685998e+001°)
1.39958732257261e+000	(-2.66403954775225e+001dB,8.73192518720066e+001°)
1.40281370456195e+000	(-2.66204389283269e+001dB,8.73131376440463e+001°)
1.40604752412990e+000	(-2.66004825792449e+001dB,8.73070092528666e+001°)
1.40928879842186e+000	(-2.65805264311962e+001dB,8.73008666665441e+001°)
1.41253754462274e+000	(-2.65605704851047e+001dB,8.72947098530840e+001°)
1.41579377995707e+000	(-2.65406147418985e+001dB,8.72885387804201e+001°)
1.41905752168908e+000	(-2.65206592025100e+001dB,8.72823534164146e+001°)
1.42232878712281e+000	(-2.65007038678758e+001dB,8.72761537288577e+001°)
1.42560759360218e+000	(-2.64807487389367e+001dB,8.72699396854679e+001°)
1.42889395851109e+000	(-2.64607938166381e+001dB,8.72637112538916e+001°)
1.43218789927353e+000	(-2.64408391019295e+001dB,8.72574684017031e+001°)
1.43548943335364e+000	(-2.64208845957647e+001dB,8.72512110964041e+001°)
1.43879857825583e+000	(-2.64009302991019e+001dB,8.72449393054241e+001°)
1.44211535152486e+000	(-2.63809762129039e+001dB,8.72386529961198e+001°)
1.44543977074592e+000	(-2.63610223381376e+001dB,8.72323521357753e+001°)
1.44877185354475e+000	(-2.63410686757745e+001dB,8.72260366916015e+001°)
1.45211161758773e+000	(-2.63211152267904e+001dB,8.72197066307365e+001°)
1.45545908058195e+000	(-2.63011619921658e+001dB,8.72133619202450e+001°)
1.45881426027534e+000	(-2.62812089728854e+001dB,8.72070025271186e+001°)
1.46217717445671e+000	(-2.62612561699386e+001dB,8.72006284182752e+001°)
1.46554784095590e+000	(-2.62413035843193e+001dB,8.71942395605591e+001°)
1.46892627764385e+000	(-2.62213512170259e+001dB,8.71878359207408e+001°)
1.47231250243271e+000	(-2.62013990690613e+001dB,8.71814174655169e+001°)
1.47570653327588e+000	(-2.61814471414331e+001dB,8.71749841615100e+001°)
1.47910838816819e+000	(-2.61614954351535e+001dB,8.71685359752682e+001°)
1.48251808514594e+000	(-2.61415439512392e+001dB,8.71620728732656e+001°)
1.48593564228699e+000	(-2.61215926907117e+001dB,8.71555948219015e+001°)
1.48936107771090e+000	(-2.61016416545971e+001dB,8.71491017875006e+001°)
1.49279440957898e+000	(-2.60816908439262e+001dB,8.71425937363130e+001°)
1.49623565609442e+000	(-2.60617402597344e+001dB,8.71360706345134e+001°)
1.49968483550236e+000	(-2.60417899030621e+001dB,8.71295324482018e+001°)
1.50314196609001e+000	(-2.60218397749542e+001dB,8.71229791434029e+001°)
1.50660706618673e+000	(-2.60018898764605e+001dB,8.71164106860657e+001°)
1.51008015416413e+000	(-2.59819402086355e+001dB,8.71098270420639e+001°)
1.51356124843619e+000	(-2.59619907725386e+001dB,8.71032281771955e+001°)
1.51705036745932e+000	(-2.59420415692341e+001dB,8.70966140571826e+001°)
1.52054752973248e+000	(-2.59220925997910e+001dB,8.70899846476712e+001°)
1.52405275379728e+000	(-2.59021438652833e+001dB,8.70833399142315e+001°)
1.52756605823806e+000	(-2.58821953667899e+001dB,8.70766798223569e+001°)
1.53108746168202e+000	(-2.58622471053945e+001dB,8.70700043374648e+001°)
1.53461698279928e+000	(-2.58422990821860e+001dB,8.70633134248959e+001°)
1.53815464030302e+000	(-2.58223512982580e+001dB,8.70566070499139e+001°)
1.54170045294954e+000	(-2.58024037547093e+001dB,8.70498851777060e+001°)
1.54525443953840e+000	(-2.57824564526436e+001dB,8.70431477733821e+001°)
1.54881661891247e+000	(-2.57625093931696e+001dB,8.70363948019750e+001°)
1.55238700995807e+000	(-2.57425625774013e+001dB,8.70296262284402e+001°)
1.55596563160506e+000	(-2.57226160064576e+001dB,8.70228420176556e+001°)
1.55955250282694e+000	(-2.57026696814625e+001dB,8.70160421344216e+001°)
1.56314764264094e+000	(-2.56827236035451e+001dB,8.70092265434607e+001°)
1.56675107010813e+000	(-2.56627777738398e+001dB,8.70023952094174e+001°)
1.57036280433354e+000	(-2.56428321934862e+001dB,8.69955480968584e+001°)
1.57398286446620e+000	(-2.56228868636288e+001dB,8.69886851702719e+001°)
1.57761126969933e+000	(-2.56029417854177e+001dB,8.69818063940678e+001°)
1.58124803927037e+000	(-2.55829969600081e+001dB,8.69749117325774e+001°)
1.58489319246110e+000	(-2.55630523885603e+001dB,8.69680011500533e+001°)
1.58854674859776e+000	(-2.55431080722401e+001dB,8.69610746106694e+001°)
1.59220872705115e+000	(-2.55231640122187e+001dB,8.69541320785205e+001°)
1.59587914723672e+000	(-2.55032202096724e+001dB,8.69471735176222e+001°)
1.59955802861465e+000	(-2.54832766657830e+001dB,8.69401988919108e+001°)
1.60324539069002e+000	(-2.54633333817377e+001dB,8.69332081652433e+001°)
1.60694125301286e+000	(-2.54433903587291e+001dB,8.69262013013969e+001°)
1.61064563517825e+000	(-2.54234475979552e+001dB,8.69191782640692e+001°)
1.61435855682647e+000	(-2.54035051006196e+001dB,8.69121390168778e+001°)
1.61808003764305e+000	(-2.53835628679312e+001dB,8.69050835233603e+001°)
1.62181009735891e+000	(-2.53636209011045e+001dB,8.68980117469740e+001°)
1.62554875575047e+000	(-2.53436792013597e+001dB,8.68909236510958e+001°)
1.62929603263970e+000	(-2.53237377699223e+001dB,8.68838191990222e+001°)
1.63305194789432e+000	(-2.53037966080235e+001dB,8.68766983539691e+001°)
1.63681652142779e+000	(-2.52838557169001e+001dB,8.68695610790712e+001°)
1.64058977319952e+000	(-2.52639150977947e+001dB,8.68624073373827e+001°)
1.64437172321491e+000	(-2.52439747519554e+001dB,8.68552370918762e+001°)
1.64816239152549e+000	(-2.52240346806359e+001dB,8.68480503054433e+001°)
1.65196179822900e+000	(-2.52040948850959e+001dB,8.68408469408942e+001°)
1.65576996346951e+000	(-2.51841553666006e+001dB,8.68336269609572e+001°)
1.65958690743754e+000	(-2.51642161264210e+001dB,8.68263903282792e+001°)
1.66341265037015e+000	(-2.51442771658341e+001dB,8.68191370054249e+001°)
1.66724721255104e+000	(-2.51243384861224e+001dB,8.68118669548770e+001°)
1.67109061431069e+000	(-2.51044000885746e+001dB,8.68045801390362e+001°)
1.67494287602642e+000	(-2.50844619744850e+001dB,8.67972765202205e+001°)
1.67880401812254e+000	(-2.50645241451539e+001dB,8.67899560606657e+001°)
1.68267406107045e+000	(-2.50445866018875e+001dB,8.67826187225246e+001°)
1.68655302538872e+000	(-2.50246493459980e+001dB,8.67752644678673e+001°)
1.69044093164324e+000	(-2.50047123788036e+001dB,8.67678932586811e+001°)
1.69433780044731e+000	(-2.49847757016284e+001dB,8.67605050568698e+001°)
1.69824365246172e+000	(-2.49648393158027e+001dB,8.67530998242540e+001°)
1.70215850839493e+000	(-2.49449032226626e+001dB,8.67456775225711e+001°)
1.70608238900310e+000	(-2.49249674235505e+001dB,8.67382381134745e+001°)
1.71001531509027e+000	(-2.49050319198150e+001dB,8.67307815585341e+001°)
1.71395730750840e+000	(-2.48850967128105e+001dB,8.67233078192358e+001°)
1.71790838715757e+000	(-2.48651618038980e+001dB,8.67158168569812e+001°)
1.72186857498599e+000	(-2.48452271944443e+001dB,8.67083086330881e+001°)
1.72583789199018e+000	(-2.48252928858226e+001dB,8.67007831087894e+001°)
1.72981635921508e+000	(-2.48053588794125e+001dB,8.66932402452338e+001°)
1.73380399775412e+000	(-2.47854251765997e+001dB,8.66856800034852e+001°)
1.73780082874935e+000	(-2.47654917787762e+001dB,8.66781023445226e+001°)
1.74180687339159e+000	(-2.47455586873405e+001dB,8.66705072292399e+001°)
1.74582215292048e+000	(-2.47256259036972e+001dB,8.66628946184460e+001°)
1.74984668862464e+000	(-2.47056934292576e+001dB,8.66552644728642e+001°)
1.75388050184174e+000	(-2.46857612654392e+001dB,8.66476167531326e+001°)
1.75792361395867e+000	(-2.46658294136660e+001dB,8.66399514198034e+001°)
1.76197604641161e+000	(-2.46458978753687e+001dB,8.66322684333431e+001°)
1.76603782068614e+000	(-2.46259666519842e+001dB,8.66245677541322e+001°)
1.77010895831740e+000	(-2.46060357449561e+001dB,8.66168493424650e+001°)
1.77418948089014e+000	(-2.45861051557345e+001dB,8.66091131585497e+001°)
1.77827941003890e+000	(-2.45661748857763e+001dB,8.66013591625080e+001°)
1.78237876744807e+000	(-2.45462449365447e+001dB,8.65935873143747e+001°)
1.78648757485203e+000	(-2.45263153095098e+001dB,8.65857975740983e+001°)
1.79060585403527e+000	(-2.45063860061484e+001dB,8.65779899015401e+001°)
1.79473362683250e+000	(-2.44864570279439e+001dB,8.65701642564743e+001°)
1.79887091512876e+000	(-2.44665283763864e+001dB,8.65623205985879e+001°)
1.80301774085955e+000	(-2.44466000529730e+001dB,8.65544588874807e+001°)
1.80717412601090e+000	(-2.44266720592075e+001dB,8.65465790826647e+001°)
1.81134009261958e+000	(-2.44067443966004e+001dB,8.65386811435643e+001°)
1.81551566277311e+000	(-2.43868170666693e+001dB,8.65307650295159e+001°)
1.81970085860996e+000	(-2.43668900709386e+001dB,8.65228306997681e+001°)
1.82389570231961e+000	(-2.43469634109395e+001dB,8.65148781134811e+001°)
1.82810021614272e+000	(-2.43270370882105e+001dB,8.65069072297268e+001°)
1.83231442237119e+000	(-2.43071111042968e+001dB,8.64989180074888e+001°)
1.83653834334832e+000	(-2.42871854607507e+001dB,8.64909104056616e+001°)
1.84077200146893e+000	(-2.42672601591316e+001dB,8.64828843830513e+001°)
1.84501541917945e+000	(-2.42473352010059e+001dB,8.64748398983747e+001°)
1.84926861897805e+000	(-2.42274105879474e+001dB,8.64667769102597e+001°)
1.85353162341479e+000	(-2.42074863215366e+001dB,8.64586953772448e+001°)
1.85780445509167e+000	(-2.41875624033616e+001dB,8.64505952577790e+001°)
1.86208713666284e+000	(-2.41676388350174e+001dB,8.64424765102216e+001°)
1.86637969083464e+000	(-2.41477156181066e+001dB,8.64343390928423e+001°)
1.87068214036577e+000	(-2.41277927542387e+001dB,8.64261829638208e+001°)
1.87499450806739e+000	(-2.41078702450308e+001dB,8.64180080812465e+001°)
1.87931681680324e+000	(-2.40879480921071e+001dB,8.64098144031189e+001°)
1.88364908948977e+000	(-2.40680262970995e+001dB,8.64016018873467e+001°)
1.88799134909627e+000	(-2.40481048616471e+001dB,8.63933704917483e+001°)
