Freq.	V(out)
1.00000000000000e+000	(-5.35862780053050e+001dB,1.76379966272098e+002°)
1.00230523807790e+000	(-5.35462734352141e+001dB,1.76371687561485e+002°)
1.00461579027840e+000	(-5.35062688448232e+001dB,1.76363389494904e+002°)
1.00693166885180e+000	(-5.34662642340462e+001dB,1.76355072027536e+002°)
1.00925288607668e+000	(-5.34262596027965e+001dB,1.76346735114453e+002°)
1.01157945425990e+000	(-5.33862549509875e+001dB,1.76338378710620e+002°)
1.01391138573668e+000	(-5.33462502785321e+001dB,1.76330002770891e+002°)
1.01624869287070e+000	(-5.33062455853428e+001dB,1.76321607250011e+002°)
1.01859138805412e+000	(-5.32662408713318e+001dB,1.76313192102616e+002°)
1.02093948370768e+000	(-5.32262361364110e+001dB,1.76304757283232e+002°)
1.02329299228075e+000	(-5.31862313804921e+001dB,1.76296302746273e+002°)
1.02565192625141e+000	(-5.31462266034862e+001dB,1.76287828446046e+002°)
1.02801629812647e+000	(-5.31062218053042e+001dB,1.76279334336744e+002°)
1.03038612044162e+000	(-5.30662169858568e+001dB,1.76270820372451e+002°)
1.03276140576140e+000	(-5.30262121450540e+001dB,1.76262286507137e+002°)
1.03514216667934e+000	(-5.29862072828059e+001dB,1.76253732694664e+002°)
1.03752841581801e+000	(-5.29462023990219e+001dB,1.76245158888778e+002°)
1.03992016582906e+000	(-5.29061974936113e+001dB,1.76236565043117e+002°)
1.04231742939330e+000	(-5.28661925664829e+001dB,1.76227951111203e+002°)
1.04472021922080e+000	(-5.28261876175453e+001dB,1.76219317046448e+002°)
1.04712854805090e+000	(-5.27861826467066e+001dB,1.76210662802148e+002°)
1.04954242865232e+000	(-5.27461776538748e+001dB,1.76201988331488e+002°)
1.05196187382322e+000	(-5.27061726389572e+001dB,1.76193293587538e+002°)
1.05438689639126e+000	(-5.26661676018610e+001dB,1.76184578523255e+002°)
1.05681750921366e+000	(-5.26261625424931e+001dB,1.76175843091481e+002°)
1.05925372517729e+000	(-5.25861574607599e+001dB,1.76167087244943e+002°)
1.06169555719872e+000	(-5.25461523565675e+001dB,1.76158310936255e+002°)
1.06414301822431e+000	(-5.25061472298217e+001dB,1.76149514117914e+002°)
1.06659612123026e+000	(-5.24661420804279e+001dB,1.76140696742303e+002°)
1.06905487922266e+000	(-5.24261369082912e+001dB,1.76131858761687e+002°)
1.07151930523761e+000	(-5.23861317133163e+001dB,1.76123000128218e+002°)
1.07398941234124e+000	(-5.23461264954076e+001dB,1.76114120793929e+002°)
1.07646521362983e+000	(-5.23061212544691e+001dB,1.76105220710738e+002°)
1.07894672222983e+000	(-5.22661159904044e+001dB,1.76096299830445e+002°)
1.08143395129794e+000	(-5.22261107031169e+001dB,1.76087358104733e+002°)
1.08392691402120e+000	(-5.21861053925095e+001dB,1.76078395485169e+002°)
1.08642562361706e+000	(-5.21461000584848e+001dB,1.76069411923200e+002°)
1.08893009333343e+000	(-5.21060947009451e+001dB,1.76060407370156e+002°)
1.09144033644876e+000	(-5.20660893197923e+001dB,1.76051381777247e+002°)
1.09395636627209e+000	(-5.20260839149278e+001dB,1.76042335095567e+002°)
1.09647819614318e+000	(-5.19860784862529e+001dB,1.76033267276088e+002°)
1.09900583943252e+000	(-5.19460730336684e+001dB,1.76024178269665e+002°)
1.10153930954141e+000	(-5.19060675570747e+001dB,1.76015068027032e+002°)
1.10407861990207e+000	(-5.18660620563720e+001dB,1.76005936498802e+002°)
1.10662378397766e+000	(-5.18260565314599e+001dB,1.75996783635470e+002°)
1.10917481526240e+000	(-5.17860509822379e+001dB,1.75987609387409e+002°)
1.11173172728159e+000	(-5.17460454086050e+001dB,1.75978413704871e+002°)
1.11429453359173e+000	(-5.17060398104597e+001dB,1.75969196537986e+002°)
1.11686324778056e+000	(-5.16660341877005e+001dB,1.75959957836765e+002°)
1.11943788346715e+000	(-5.16260285402251e+001dB,1.75950697551095e+002°)
1.12201845430196e+000	(-5.15860228679312e+001dB,1.75941415630740e+002°)
1.12460497396692e+000	(-5.15460171707160e+001dB,1.75932112025344e+002°)
1.12719745617551e+000	(-5.15060114484763e+001dB,1.75922786684426e+002°)
1.12979591467280e+000	(-5.14660057011084e+001dB,1.75913439557382e+002°)
1.13240036323556e+000	(-5.14259999285086e+001dB,1.75904070593486e+002°)
1.13501081567231e+000	(-5.13859941305726e+001dB,1.75894679741887e+002°)
1.13762728582343e+000	(-5.13459883071956e+001dB,1.75885266951609e+002°)
1.14024978756117e+000	(-5.13059824582727e+001dB,1.75875832171554e+002°)
1.14287833478977e+000	(-5.12659765836984e+001dB,1.75866375350496e+002°)
1.14551294144553e+000	(-5.12259706833671e+001dB,1.75856896437087e+002°)
1.14815362149688e+000	(-5.11859647571725e+001dB,1.75847395379851e+002°)
1.15080038894443e+000	(-5.11459588050083e+001dB,1.75837872127188e+002°)
1.15345325782109e+000	(-5.11059528267674e+001dB,1.75828326627370e+002°)
1.15611224219210e+000	(-5.10659468223426e+001dB,1.75818758828544e+002°)
1.15877735615512e+000	(-5.10259407916263e+001dB,1.75809168678731e+002°)
1.16144861384034e+000	(-5.09859347345105e+001dB,1.75799556125821e+002°)
1.16412602941049e+000	(-5.09459286508869e+001dB,1.75789921117582e+002°)
1.16680961706096e+000	(-5.09059225406466e+001dB,1.75780263601649e+002°)
1.16949939101987e+000	(-5.08659164036805e+001dB,1.75770583525532e+002°)
1.17219536554813e+000	(-5.08259102398792e+001dB,1.75760880836612e+002°)
1.17489755493953e+000	(-5.07859040491326e+001dB,1.75751155482140e+002°)
1.17760597352080e+000	(-5.07458978313307e+001dB,1.75741407409240e+002°)
1.18032063565173e+000	(-5.07058915863626e+001dB,1.75731636564904e+002°)
1.18304155572516e+000	(-5.06658853141175e+001dB,1.75721842895995e+002°)
1.18576874816716e+000	(-5.06258790144838e+001dB,1.75712026349247e+002°)
1.18850222743702e+000	(-5.05858726873498e+001dB,1.75702186871262e+002°)
1.19124200802737e+000	(-5.05458663326033e+001dB,1.75692324408512e+002°)
1.19398810446427e+000	(-5.05058599501319e+001dB,1.75682438907337e+002°)
1.19674053130724e+000	(-5.04658535398224e+001dB,1.75672530313945e+002°)
1.19949930314938e+000	(-5.04258471015617e+001dB,1.75662598574414e+002°)
1.20226443461741e+000	(-5.03858406352360e+001dB,1.75652643634687e+002°)
1.20503594037179e+000	(-5.03458341407313e+001dB,1.75642665440578e+002°)
1.20781383510678e+000	(-5.03058276179330e+001dB,1.75632663937764e+002°)
1.21059813355048e+000	(-5.02658210667264e+001dB,1.75622639071792e+002°)
1.21338885046497e+000	(-5.02258144869962e+001dB,1.75612590788072e+002°)
1.21618600064636e+000	(-5.01858078786267e+001dB,1.75602519031883e+002°)
1.21898959892486e+000	(-5.01458012415020e+001dB,1.75592423748368e+002°)
1.22179966016487e+000	(-5.01057945755057e+001dB,1.75582304882536e+002°)
1.22461619926504e+000	(-5.00657878805210e+001dB,1.75572162379259e+002°)
1.22743923115840e+000	(-5.00257811564306e+001dB,1.75561996183275e+002°)
1.23026877081238e+000	(-4.99857744031172e+001dB,1.75551806239187e+002°)
1.23310483322890e+000	(-4.99457676204627e+001dB,1.75541592491460e+002°)
1.23594743344451e+000	(-4.99057608083488e+001dB,1.75531354884423e+002°)
1.23879658653036e+000	(-4.98657539666567e+001dB,1.75521093362268e+002°)
1.24165230759241e+000	(-4.98257470952675e+001dB,1.75510807869051e+002°)
1.24451461177138e+000	(-4.97857401940615e+001dB,1.75500498348687e+002°)
1.24738351424294e+000	(-4.97457332629189e+001dB,1.75490164744957e+002°)
1.25025903021771e+000	(-4.97057263017194e+001dB,1.75479807001500e+002°)
1.25314117494141e+000	(-4.96657193103423e+001dB,1.75469425061819e+002°)
1.25602996369487e+000	(-4.96257122886666e+001dB,1.75459018869275e+002°)
1.25892541179416e+000	(-4.95857052365708e+001dB,1.75448588367093e+002°)
1.26182753459066e+000	(-4.95456981539332e+001dB,1.75438133498354e+002°)
1.26473634747115e+000	(-4.95056910406314e+001dB,1.75427654206001e+002°)
1.26765186585784e+000	(-4.94656838965428e+001dB,1.75417150432837e+002°)
1.27057410520854e+000	(-4.94256767215445e+001dB,1.75406622121522e+002°)
1.27350308101666e+000	(-4.93856695155130e+001dB,1.75396069214576e+002°)
1.27643880881134e+000	(-4.93456622783246e+001dB,1.75385491654376e+002°)
1.27938130415752e+000	(-4.93056550098550e+001dB,1.75374889383157e+002°)
1.28233058265602e+000	(-4.92656477099796e+001dB,1.75364262343013e+002°)
1.28528665994361e+000	(-4.92256403785736e+001dB,1.75353610475893e+002°)
1.28824955169313e+000	(-4.91856330155114e+001dB,1.75342933723603e+002°)
1.29121927361353e+000	(-4.91456256206675e+001dB,1.75332232027805e+002°)
1.29419584144998e+000	(-4.91056181939155e+001dB,1.75321505330018e+002°)
1.29717927098395e+000	(-4.90656107351291e+001dB,1.75310753571617e+002°)
1.30016957803328e+000	(-4.90256032441812e+001dB,1.75299976693829e+002°)
1.30316677845229e+000	(-4.89855957209445e+001dB,1.75289174637737e+002°)
1.30617088813183e+000	(-4.89455881652913e+001dB,1.75278347344281e+002°)
1.30918192299940e+000	(-4.89055805770935e+001dB,1.75267494754251e+002°)
1.31219989901920e+000	(-4.88655729562225e+001dB,1.75256616808292e+002°)
1.31522483219223e+000	(-4.88255653025496e+001dB,1.75245713446902e+002°)
1.31825673855640e+000	(-4.87855576159453e+001dB,1.75234784610433e+002°)
1.32129563418657e+000	(-4.87455498962800e+001dB,1.75223830239086e+002°)
1.32434153519466e+000	(-4.87055421434237e+001dB,1.75212850272918e+002°)
1.32739445772973e+000	(-4.86655343572458e+001dB,1.75201844651833e+002°)
1.33045441797808e+000	(-4.86255265376155e+001dB,1.75190813315589e+002°)
1.33352143216332e+000	(-4.85855186844015e+001dB,1.75179756203795e+002°)
1.33659551654643e+000	(-4.85455107974723e+001dB,1.75168673255908e+002°)
1.33967668742593e+000	(-4.85055028766957e+001dB,1.75157564411236e+002°)
1.34276496113786e+000	(-4.84654949219393e+001dB,1.75146429608937e+002°)
1.34586035405594e+000	(-4.84254869330703e+001dB,1.75135268788017e+002°)
1.34896288259164e+000	(-4.83854789099556e+001dB,1.75124081887330e+002°)
1.35207256319427e+000	(-4.83454708524614e+001dB,1.75112868845580e+002°)
1.35518941235103e+000	(-4.83054627604539e+001dB,1.75101629601317e+002°)
1.35831344658715e+000	(-4.82654546337986e+001dB,1.75090364092940e+002°)
1.36144468246594e+000	(-4.82254464723607e+001dB,1.75079072258692e+002°)
1.36458313658892e+000	(-4.81854382760051e+001dB,1.75067754036667e+002°)
1.36772882559584e+000	(-4.81454300445962e+001dB,1.75056409364801e+002°)
1.37088176616484e+000	(-4.81054217779982e+001dB,1.75045038180876e+002°)
1.37404197501251e+000	(-4.80654134760746e+001dB,1.75033640422522e+002°)
1.37720946889394e+000	(-4.80254051386887e+001dB,1.75022216027212e+002°)
1.38038426460288e+000	(-4.79853967657035e+001dB,1.75010764932262e+002°)
1.38356637897177e+000	(-4.79453883569814e+001dB,1.74999287074834e+002°)
1.38675582887188e+000	(-4.79053799123846e+001dB,1.74987782391932e+002°)
1.38995263121334e+000	(-4.78653714317748e+001dB,1.74976250820404e+002°)
1.39315680294529e+000	(-4.78253629150133e+001dB,1.74964692296941e+002°)
1.39636836105593e+000	(-4.77853543619612e+001dB,1.74953106758075e+002°)
1.39958732257261e+000	(-4.77453457724789e+001dB,1.74941494140180e+002°)
1.40281370456195e+000	(-4.77053371464268e+001dB,1.74929854379472e+002°)
1.40604752412990e+000	(-4.76653284836645e+001dB,1.74918187412006e+002°)
1.40928879842186e+000	(-4.76253197840516e+001dB,1.74906493173680e+002°)
1.41253754462274e+000	(-4.75853110474470e+001dB,1.74894771600230e+002°)
1.41579377995707e+000	(-4.75453022737095e+001dB,1.74883022627233e+002°)
1.41905752168908e+000	(-4.75052934626972e+001dB,1.74871246190102e+002°)
1.42232878712281e+000	(-4.74652846142683e+001dB,1.74859442224093e+002°)
1.42560759360218e+000	(-4.74252757282800e+001dB,1.74847610664298e+002°)
1.42889395851109e+000	(-4.73852668045897e+001dB,1.74835751445645e+002°)
1.43218789927353e+000	(-4.73452578430541e+001dB,1.74823864502901e+002°)
1.43548943335364e+000	(-4.73052488435295e+001dB,1.74811949770671e+002°)
1.43879857825583e+000	(-4.72652398058720e+001dB,1.74800007183395e+002°)
1.44211535152486e+000	(-4.72252307299372e+001dB,1.74788036675347e+002°)
1.44543977074592e+000	(-4.71852216155805e+001dB,1.74776038180640e+002°)
1.44877185354475e+000	(-4.71452124626566e+001dB,1.74764011633220e+002°)
1.45211161758773e+000	(-4.71052032710202e+001dB,1.74751956966867e+002°)
1.45545908058195e+000	(-4.70651940405253e+001dB,1.74739874115196e+002°)
1.45881426027534e+000	(-4.70251847710259e+001dB,1.74727763011655e+002°)
1.46217717445671e+000	(-4.69851754623752e+001dB,1.74715623589527e+002°)
1.46554784095590e+000	(-4.69451661144263e+001dB,1.74703455781923e+002°)
1.46892627764385e+000	(-4.69051567270320e+001dB,1.74691259521792e+002°)
1.47231250243271e+000	(-4.68651473000446e+001dB,1.74679034741910e+002°)
1.47570653327588e+000	(-4.68251378333159e+001dB,1.74666781374886e+002°)
1.47910838816819e+000	(-4.67851283266976e+001dB,1.74654499353161e+002°)
1.48251808514594e+000	(-4.67451187800410e+001dB,1.74642188609003e+002°)
1.48593564228699e+000	(-4.67051091931969e+001dB,1.74629849074513e+002°)
1.48936107771090e+000	(-4.66650995660158e+001dB,1.74617480681619e+002°)
1.49279440957898e+000	(-4.66250898983478e+001dB,1.74605083362079e+002°)
1.49623565609442e+000	(-4.65850801900429e+001dB,1.74592657047479e+002°)
1.49968483550236e+000	(-4.65450704409504e+001dB,1.74580201669233e+002°)
1.50314196609001e+000	(-4.65050606509194e+001dB,1.74567717158581e+002°)
1.50660706618673e+000	(-4.64650508197987e+001dB,1.74555203446592e+002°)
1.51008015416413e+000	(-4.64250409474366e+001dB,1.74542660464160e+002°)
1.51356124843619e+000	(-4.63850310336813e+001dB,1.74530088142005e+002°)
1.51705036745932e+000	(-4.63450210783804e+001dB,1.74517486410672e+002°)
1.52054752973248e+000	(-4.63050110813812e+001dB,1.74504855200532e+002°)
1.52405275379728e+000	(-4.62650010425309e+001dB,1.74492194441778e+002°)
1.52756605823806e+000	(-4.62249909616760e+001dB,1.74479504064430e+002°)
1.53108746168202e+000	(-4.61849808386629e+001dB,1.74466783998329e+002°)
1.53461698279928e+000	(-4.61449706733377e+001dB,1.74454034173140e+002°)
1.53815464030302e+000	(-4.61049604655459e+001dB,1.74441254518349e+002°)
1.54170045294954e+000	(-4.60649502151329e+001dB,1.74428444963265e+002°)
1.54525443953840e+000	(-4.60249399219437e+001dB,1.74415605437019e+002°)
1.54881661891247e+000	(-4.59849295858229e+001dB,1.74402735868560e+002°)
1.55238700995807e+000	(-4.59449192066150e+001dB,1.74389836186660e+002°)
1.55596563160506e+000	(-4.59049087841638e+001dB,1.74376906319909e+002°)
1.55955250282694e+000	(-4.58648983183132e+001dB,1.74363946196718e+002°)
1.56314764264094e+000	(-4.58248878089065e+001dB,1.74350955745315e+002°)
1.56675107010813e+000	(-4.57848772557867e+001dB,1.74337934893747e+002°)
1.57036280433354e+000	(-4.57448666587966e+001dB,1.74324883569879e+002°)
1.57398286446620e+000	(-4.57048560177786e+001dB,1.74311801701392e+002°)
1.57761126969933e+000	(-4.56648453325749e+001dB,1.74298689215784e+002°)
1.58124803927037e+000	(-4.56248346030271e+001dB,1.74285546040369e+002°)
1.58489319246110e+000	(-4.55848238289769e+001dB,1.74272372102279e+002°)
1.58854674859776e+000	(-4.55448130102653e+001dB,1.74259167328456e+002°)
1.59220872705115e+000	(-4.55048021467334e+001dB,1.74245931645662e+002°)
1.59587914723672e+000	(-4.54647912382216e+001dB,1.74232664980468e+002°)
1.59955802861465e+000	(-4.54247802845703e+001dB,1.74219367259262e+002°)
1.60324539069002e+000	(-4.53847692856195e+001dB,1.74206038408243e+002°)
1.60694125301286e+000	(-4.53447582412090e+001dB,1.74192678353422e+002°)
1.61064563517825e+000	(-4.53047471511780e+001dB,1.74179287020624e+002°)
1.61435855682647e+000	(-4.52647360153657e+001dB,1.74165864335483e+002°)
1.61808003764305e+000	(-4.52247248336111e+001dB,1.74152410223444e+002°)
1.62181009735891e+000	(-4.51847136057527e+001dB,1.74138924609764e+002°)
1.62554875575047e+000	(-4.51447023316287e+001dB,1.74125407419506e+002°)
1.62929603263970e+000	(-4.51046910110772e+001dB,1.74111858577545e+002°)
1.63305194789432e+000	(-4.50646796439360e+001dB,1.74098278008563e+002°)
1.63681652142779e+000	(-4.50246682300425e+001dB,1.74084665637050e+002°)
1.64058977319952e+000	(-4.49846567692340e+001dB,1.74071021387305e+002°)
1.64437172321491e+000	(-4.49446452613475e+001dB,1.74057345183432e+002°)
1.64816239152549e+000	(-4.49046337062195e+001dB,1.74043636949340e+002°)
1.65196179822900e+000	(-4.48646221036867e+001dB,1.74029896608746e+002°)
1.65576996346951e+000	(-4.48246104535852e+001dB,1.74016124085172e+002°)
1.65958690743754e+000	(-4.47845987557508e+001dB,1.74002319301942e+002°)
1.66341265037015e+000	(-4.47445870100195e+001dB,1.73988482182186e+002°)
1.66724721255104e+000	(-4.47045752162266e+001dB,1.73974612648837e+002°)
1.67109061431069e+000	(-4.46645633742074e+001dB,1.73960710624631e+002°)
1.67494287602642e+000	(-4.46245514837968e+001dB,1.73946776032104e+002°)
1.67880401812254e+000	(-4.45845395448297e+001dB,1.73932808793596e+002°)
1.68267406107045e+000	(-4.45445275571406e+001dB,1.73918808831248e+002°)
1.68655302538872e+000	(-4.45045155205638e+001dB,1.73904776066999e+002°)
1.69044093164324e+000	(-4.44645034349335e+001dB,1.73890710422590e+002°)
1.69433780044731e+000	(-4.44244913000835e+001dB,1.73876611819560e+002°)
1.69824365246172e+000	(-4.43844791158475e+001dB,1.73862480179247e+002°)
1.70215850839493e+000	(-4.43444668820592e+001dB,1.73848315422787e+002°)
1.70608238900310e+000	(-4.43044545985516e+001dB,1.73834117471114e+002°)
1.71001531509027e+000	(-4.42644422651579e+001dB,1.73819886244958e+002°)
1.71395730750840e+000	(-4.42244298817111e+001dB,1.73805621664845e+002°)
1.71790838715757e+000	(-4.41844174480438e+001dB,1.73791323651096e+002°)
1.72186857498599e+000	(-4.41444049639886e+001dB,1.73776992123830e+002°)
1.72583789199018e+000	(-4.41043924293779e+001dB,1.73762627002956e+002°)
1.72981635921508e+000	(-4.40643798440438e+001dB,1.73748228208181e+002°)
1.73380399775412e+000	(-4.40243672078183e+001dB,1.73733795659001e+002°)
1.73780082874935e+000	(-4.39843545205334e+001dB,1.73719329274708e+002°)
1.74180687339159e+000	(-4.39443417820206e+001dB,1.73704828974384e+002°)
1.74582215292048e+000	(-4.39043289921116e+001dB,1.73690294676903e+002°)
1.74984668862464e+000	(-4.38643161506378e+001dB,1.73675726300929e+002°)
1.75388050184174e+000	(-4.38243032574304e+001dB,1.73661123764916e+002°)
1.75792361395867e+000	(-4.37842903123205e+001dB,1.73646486987107e+002°)
1.76197604641161e+000	(-4.37442773151391e+001dB,1.73631815885536e+002°)
1.76603782068614e+000	(-4.37042642657171e+001dB,1.73617110378023e+002°)
1.77010895831740e+000	(-4.36642511638851e+001dB,1.73602370382175e+002°)
1.77418948089014e+000	(-4.36242380094740e+001dB,1.73587595815388e+002°)
1.77827941003890e+000	(-4.35842248023140e+001dB,1.73572786594841e+002°)
1.78237876744807e+000	(-4.35442115422357e+001dB,1.73557942637502e+002°)
1.78648757485203e+000	(-4.35041982290694e+001dB,1.73543063860122e+002°)
1.79060585403527e+000	(-4.34641848626453e+001dB,1.73528150179236e+002°)
1.79473362683250e+000	(-4.34241714427934e+001dB,1.73513201511163e+002°)
1.79887091512876e+000	(-4.33841579693439e+001dB,1.73498217772005e+002°)
1.80301774085955e+000	(-4.33441444421268e+001dB,1.73483198877647e+002°)
1.80717412601090e+000	(-4.33041308609719e+001dB,1.73468144743753e+002°)
1.81134009261958e+000	(-4.32641172257091e+001dB,1.73453055285772e+002°)
1.81551566277311e+000	(-4.32241035361681e+001dB,1.73437930418928e+002°)
1.81970085860996e+000	(-4.31840897921788e+001dB,1.73422770058230e+002°)
1.82389570231961e+000	(-4.31440759935708e+001dB,1.73407574118462e+002°)
1.82810021614272e+000	(-4.31040621401738e+001dB,1.73392342514188e+002°)
1.83231442237119e+000	(-4.30640482318174e+001dB,1.73377075159750e+002°)
1.83653834334832e+000	(-4.30240342683312e+001dB,1.73361771969264e+002°)
1.84077200146893e+000	(-4.29840202495448e+001dB,1.73346432856626e+002°)
1.84501541917945e+000	(-4.29440061752879e+001dB,1.73331057735505e+002°)
1.84926861897805e+000	(-4.29039920453899e+001dB,1.73315646519346e+002°)
1.85353162341479e+000	(-4.28639778596806e+001dB,1.73300199121367e+002°)
1.85780445509167e+000	(-4.28239636179895e+001dB,1.73284715454560e+002°)
1.86208713666284e+000	(-4.27839493201462e+001dB,1.73269195431691e+002°)
1.86637969083464e+000	(-4.27439349659804e+001dB,1.73253638965295e+002°)
1.87068214036577e+000	(-4.27039205553218e+001dB,1.73238045967682e+002°)
1.87499450806739e+000	(-4.26639060880001e+001dB,1.73222416350929e+002°)
1.87931681680324e+000	(-4.26238915638451e+001dB,1.73206750026886e+002°)
1.88364908948977e+000	(-4.25838769826868e+001dB,1.73191046907171e+002°)
1.88799134909627e+000	(-4.25438623443550e+001dB,1.73175306903169e+002°)
