Freq.	V(rl_out)	V(rlc_out)
1.00000000000000e+000	(-2.95702796104606e+001dB,8.61724978596689e+001°)	(-5.35912366716180e+001dB,1.74468718421486e+002°)
1.00230523807790e+000	(-2.95503681356312e+001dB,8.61637797539317e+001°)	(-5.35512548455086e+001dB,1.74456018807208e+002°)
1.00461579027840e+000	(-2.95304570675819e+001dB,8.61550415479821e+001°)	(-5.35112731064530e+001dB,1.74443289542449e+002°)
1.00693166885180e+000	(-2.95105464081737e+001dB,8.61462831971392e+001°)	(-5.34712914548827e+001dB,1.74430530557954e+002°)
1.00925288607668e+000	(-2.94906361592760e+001dB,8.61375046566264e+001°)	(-5.34313098912312e+001dB,1.74417741784296e+002°)
1.01157945425990e+000	(-2.94707263227667e+001dB,8.61287058815717e+001°)	(-5.33913284159343e+001dB,1.74404923151881e+002°)
1.01391138573668e+000	(-2.94508169005322e+001dB,8.61198868270071e+001°)	(-5.33513470294302e+001dB,1.74392074590940e+002°)
1.01624869287070e+000	(-2.94309078944673e+001dB,8.61110474478688e+001°)	(-5.33113657321594e+001dB,1.74379196031538e+002°)
1.01859138805412e+000	(-2.94109993064756e+001dB,8.61021876989967e+001°)	(-5.32713845245645e+001dB,1.74366287403565e+002°)
1.02093948370768e+000	(-2.93910911384693e+001dB,8.60933075351346e+001°)	(-5.32314034070907e+001dB,1.74353348636740e+002°)
1.02329299228075e+000	(-2.93711833923690e+001dB,8.60844069109297e+001°)	(-5.31914223801854e+001dB,1.74340379660609e+002°)
1.02565192625141e+000	(-2.93512760701043e+001dB,8.60754857809328e+001°)	(-5.31514414442984e+001dB,1.74327380404547e+002°)
1.02801629812647e+000	(-2.93313691736135e+001dB,8.60665440995976e+001°)	(-5.31114605998817e+001dB,1.74314350797755e+002°)
1.03038612044162e+000	(-2.93114627048435e+001dB,8.60575818212811e+001°)	(-5.30714798473901e+001dB,1.74301290769259e+002°)
1.03276140576140e+000	(-2.92915566657502e+001dB,8.60485989002433e+001°)	(-5.30314991872803e+001dB,1.74288200247911e+002°)
1.03514216667934e+000	(-2.92716510582983e+001dB,8.60395952906468e+001°)	(-5.29915186200117e+001dB,1.74275079162390e+002°)
1.03752841581801e+000	(-2.92517458844613e+001dB,8.60305709465568e+001°)	(-5.29515381460461e+001dB,1.74261927441199e+002°)
1.03992016582906e+000	(-2.92318411462219e+001dB,8.60215258219411e+001°)	(-5.29115577658477e+001dB,1.74248745012664e+002°)
1.04231742939330e+000	(-2.92119368455714e+001dB,8.60124598706695e+001°)	(-5.28715774798830e+001dB,1.74235531804936e+002°)
1.04472021922080e+000	(-2.91920329845105e+001dB,8.60033730465141e+001°)	(-5.28315972886213e+001dB,1.74222287745991e+002°)
1.04712854805090e+000	(-2.91721295650486e+001dB,8.59942653031490e+001°)	(-5.27916171925341e+001dB,1.74209012763625e+002°)
1.04954242865232e+000	(-2.91522265892045e+001dB,8.59851365941499e+001°)	(-5.27516371920954e+001dB,1.74195706785458e+002°)
1.05196187382322e+000	(-2.91323240590059e+001dB,8.59759868729945e+001°)	(-5.27116572877820e+001dB,1.74182369738932e+002°)
1.05438689639126e+000	(-2.91124219764899e+001dB,8.59668160930615e+001°)	(-5.26716774800728e+001dB,1.74169001551311e+002°)
1.05681750921366e+000	(-2.90925203437025e+001dB,8.59576242076312e+001°)	(-5.26316977694496e+001dB,1.74155602149680e+002°)
1.05925372517729e+000	(-2.90726191626994e+001dB,8.59484111698852e+001°)	(-5.25917181563966e+001dB,1.74142171460942e+002°)
1.06169555719872e+000	(-2.90527184355452e+001dB,8.59391769329058e+001°)	(-5.25517386414005e+001dB,1.74128709411824e+002°)
1.06414301822431e+000	(-2.90328181643141e+001dB,8.59299214496762e+001°)	(-5.25117592249507e+001dB,1.74115215928870e+002°)
1.06659612123026e+000	(-2.90129183510894e+001dB,8.59206446730805e+001°)	(-5.24717799075391e+001dB,1.74101690938444e+002°)
1.06905487922266e+000	(-2.89930189979642e+001dB,8.59113465559031e+001°)	(-5.24318006896603e+001dB,1.74088134366729e+002°)
1.07151930523761e+000	(-2.89731201070408e+001dB,8.59020270508288e+001°)	(-5.23918215718115e+001dB,1.74074546139725e+002°)
1.07398941234124e+000	(-2.89532216804310e+001dB,8.58926861104428e+001°)	(-5.23518425544925e+001dB,1.74060926183251e+002°)
1.07646521362983e+000	(-2.89333237202563e+001dB,8.58833236872300e+001°)	(-5.23118636382058e+001dB,1.74047274422942e+002°)
1.07894672222983e+000	(-2.89134262286477e+001dB,8.58739397335756e+001°)	(-5.22718848234566e+001dB,1.74033590784251e+002°)
1.08143395129794e+000	(-2.88935292077458e+001dB,8.58645342017641e+001°)	(-5.22319061107528e+001dB,1.74019875192445e+002°)
1.08392691402120e+000	(-2.88736326597010e+001dB,8.58551070439799e+001°)	(-5.21919275006048e+001dB,1.74006127572609e+002°)
1.08642562361706e+000	(-2.88537365866733e+001dB,8.58456582123067e+001°)	(-5.21519489935260e+001dB,1.73992347849642e+002°)
1.08893009333343e+000	(-2.88338409908325e+001dB,8.58361876587274e+001°)	(-5.21119705900324e+001dB,1.73978535948259e+002°)
1.09144033644876e+000	(-2.88139458743582e+001dB,8.58266953351241e+001°)	(-5.20719922906428e+001dB,1.73964691792986e+002°)
1.09395636627209e+000	(-2.87940512394399e+001dB,8.58171811932779e+001°)	(-5.20320140958786e+001dB,1.73950815308166e+002°)
1.09647819614318e+000	(-2.87741570882769e+001dB,8.58076451848684e+001°)	(-5.19920360062643e+001dB,1.73936906417954e+002°)
1.09900583943252e+000	(-2.87542634230786e+001dB,8.57980872614741e+001°)	(-5.19520580223269e+001dB,1.73922965046318e+002°)
1.10153930954141e+000	(-2.87343702460641e+001dB,8.57885073745719e+001°)	(-5.19120801445963e+001dB,1.73908991117038e+002°)
1.10407861990207e+000	(-2.87144775594629e+001dB,8.57789054755369e+001°)	(-5.18721023736055e+001dB,1.73894984553704e+002°)
1.10662378397766e+000	(-2.86945853655142e+001dB,8.57692815156425e+001°)	(-5.18321247098899e+001dB,1.73880945279720e+002°)
1.10917481526240e+000	(-2.86746936664674e+001dB,8.57596354460600e+001°)	(-5.17921471539881e+001dB,1.73866873218298e+002°)
1.11173172728159e+000	(-2.86548024645824e+001dB,8.57499672178585e+001°)	(-5.17521697064414e+001dB,1.73852768292463e+002°)
1.11429453359173e+000	(-2.86349117621288e+001dB,8.57402767820049e+001°)	(-5.17121923677942e+001dB,1.73838630425047e+002°)
1.11686324778056e+000	(-2.86150215613867e+001dB,8.57305640893636e+001°)	(-5.16722151385936e+001dB,1.73824459538692e+002°)
1.11943788346715e+000	(-2.85951318646466e+001dB,8.57208290906963e+001°)	(-5.16322380193898e+001dB,1.73810255555849e+002°)
1.12201845430196e+000	(-2.85752426742092e+001dB,8.57110717366620e+001°)	(-5.15922610107359e+001dB,1.73796018398776e+002°)
1.12460497396692e+000	(-2.85553539923854e+001dB,8.57012919778166e+001°)	(-5.15522841131879e+001dB,1.73781747989540e+002°)
1.12719745617551e+000	(-2.85354658214969e+001dB,8.56914897646130e+001°)	(-5.15123073273048e+001dB,1.73767444250014e+002°)
1.12979591467280e+000	(-2.85155781638757e+001dB,8.56816650474010e+001°)	(-5.14723306536488e+001dB,1.73753107101877e+002°)
1.13240036323556e+000	(-2.84956910218642e+001dB,8.56718177764267e+001°)	(-5.14323540927849e+001dB,1.73738736466616e+002°)
1.13501081567231e+000	(-2.84758043978156e+001dB,8.56619479018328e+001°)	(-5.13923776452812e+001dB,1.73724332265520e+002°)
1.13762728582343e+000	(-2.84559182940935e+001dB,8.56520553736582e+001°)	(-5.13524013117089e+001dB,1.73709894419686e+002°)
1.14024978756117e+000	(-2.84360327130723e+001dB,8.56421401418379e+001°)	(-5.13124250926422e+001dB,1.73695422850014e+002°)
1.14287833478977e+000	(-2.84161476571371e+001dB,8.56322021562031e+001°)	(-5.12724489886586e+001dB,1.73680917477208e+002°)
1.14551294144553e+000	(-2.83962631286837e+001dB,8.56222413664805e+001°)	(-5.12324730003384e+001dB,1.73666378221776e+002°)
1.14815362149688e+000	(-2.83763791301188e+001dB,8.56122577222926e+001°)	(-5.11924971282654e+001dB,1.73651805004026e+002°)
1.15080038894443e+000	(-2.83564956638597e+001dB,8.56022511731574e+001°)	(-5.11525213730261e+001dB,1.73637197744072e+002°)
1.15345325782109e+000	(-2.83366127323349e+001dB,8.55922216684883e+001°)	(-5.11125457352106e+001dB,1.73622556361828e+002°)
1.15611224219210e+000	(-2.83167303379837e+001dB,8.55821691575937e+001°)	(-5.10725702154120e+001dB,1.73607880777007e+002°)
1.15877735615512e+000	(-2.82968484832565e+001dB,8.55720935896772e+001°)	(-5.10325948142266e+001dB,1.73593170909126e+002°)
1.16144861384034e+000	(-2.82769671706144e+001dB,8.55619949138373e+001°)	(-5.09926195322539e+001dB,1.73578426677500e+002°)
1.16412602941049e+000	(-2.82570864025301e+001dB,8.55518730790672e+001°)	(-5.09526443700967e+001dB,1.73563648001244e+002°)
1.16680961706096e+000	(-2.82372061814871e+001dB,8.55417280342546e+001°)	(-5.09126693283611e+001dB,1.73548834799272e+002°)
1.16949939101987e+000	(-2.82173265099801e+001dB,8.55315597281817e+001°)	(-5.08726944076565e+001dB,1.73533986990296e+002°)
1.17219536554813e+000	(-2.81974473905152e+001dB,8.55213681095249e+001°)	(-5.08327196085955e+001dB,1.73519104492826e+002°)
1.17489755493953e+000	(-2.81775688256096e+001dB,8.55111531268549e+001°)	(-5.07927449317940e+001dB,1.73504187225169e+002°)
1.17760597352080e+000	(-2.81576908177921e+001dB,8.55009147286361e+001°)	(-5.07527703778715e+001dB,1.73489235105429e+002°)
1.18032063565173e+000	(-2.81378133696025e+001dB,8.54906528632270e+001°)	(-5.07127959474505e+001dB,1.73474248051506e+002°)
1.18304155572516e+000	(-2.81179364835924e+001dB,8.54803674788796e+001°)	(-5.06728216411572e+001dB,1.73459225981095e+002°)
1.18576874816716e+000	(-2.80980601623247e+001dB,8.54700585237393e+001°)	(-5.06328474596210e+001dB,1.73444168811687e+002°)
1.18850222743702e+000	(-2.80781844083738e+001dB,8.54597259458451e+001°)	(-5.05928734034749e+001dB,1.73429076460567e+002°)
1.19124200802737e+000	(-2.80583092243259e+001dB,8.54493696931291e+001°)	(-5.05528994733552e+001dB,1.73413948844814e+002°)
1.19398810446427e+000	(-2.80384346127786e+001dB,8.54389897134165e+001°)	(-5.05129256699017e+001dB,1.73398785881299e+002°)
1.19674053130724e+000	(-2.80185605763413e+001dB,8.54285859544253e+001°)	(-5.04729519937578e+001dB,1.73383587486688e+002°)
1.19949930314938e+000	(-2.79986871176352e+001dB,8.54181583637664e+001°)	(-5.04329784455702e+001dB,1.73368353577437e+002°)
1.20226443461741e+000	(-2.79788142392931e+001dB,8.54077068889431e+001°)	(-5.03930050259893e+001dB,1.73353084069794e+002°)
1.20503594037179e+000	(-2.79589419439598e+001dB,8.53972314773514e+001°)	(-5.03530317356691e+001dB,1.73337778879799e+002°)
1.20781383510678e+000	(-2.79390702342920e+001dB,8.53867320762795e+001°)	(-5.03130585752669e+001dB,1.73322437923282e+002°)
1.21059813355048e+000	(-2.79191991129583e+001dB,8.53762086329078e+001°)	(-5.02730855454438e+001dB,1.73307061115863e+002°)
1.21338885046497e+000	(-2.78993285826392e+001dB,8.53656610943086e+001°)	(-5.02331126468647e+001dB,1.73291648372949e+002°)
1.21618600064636e+000	(-2.78794586460275e+001dB,8.53550894074462e+001°)	(-5.01931398801976e+001dB,1.73276199609738e+002°)
1.21898959892486e+000	(-2.78595893058279e+001dB,8.53444935191765e+001°)	(-5.01531672461148e+001dB,1.73260714741216e+002°)
1.22179966016487e+000	(-2.78397205647572e+001dB,8.53338733762470e+001°)	(-5.01131947452918e+001dB,1.73245193682156e+002°)
1.22461619926504e+000	(-2.78198524255447e+001dB,8.53232289252967e+001°)	(-5.00732223784079e+001dB,1.73229636347117e+002°)
1.22743923115840e+000	(-2.77999848909317e+001dB,8.53125601128558e+001°)	(-5.00332501461464e+001dB,1.73214042650445e+002°)
1.23026877081238e+000	(-2.77801179636719e+001dB,8.53018668853456e+001°)	(-4.99932780491941e+001dB,1.73198412506273e+002°)
1.23310483322890e+000	(-2.77602516465314e+001dB,8.52911491890784e+001°)	(-4.99533060882416e+001dB,1.73182745828516e+002°)
1.23594743344451e+000	(-2.77403859422886e+001dB,8.52804069702574e+001°)	(-4.99133342639832e+001dB,1.73167042530875e+002°)
1.23879658653036e+000	(-2.77205208537347e+001dB,8.52696401749764e+001°)	(-4.98733625771174e+001dB,1.73151302526837e+002°)
1.24165230759241e+000	(-2.77006563836730e+001dB,8.52588487492198e+001°)	(-4.98333910283461e+001dB,1.73135525729669e+002°)
1.24451461177138e+000	(-2.76807925349197e+001dB,8.52480326388623e+001°)	(-4.97934196183753e+001dB,1.73119712052422e+002°)
1.24738351424294e+000	(-2.76609293103035e+001dB,8.52371917896689e+001°)	(-4.97534483479149e+001dB,1.73103861407928e+002°)
1.25025903021771e+000	(-2.76410667126659e+001dB,8.52263261472948e+001°)	(-4.97134772176785e+001dB,1.73087973708803e+002°)
1.25314117494141e+000	(-2.76212047448610e+001dB,8.52154356572851e+001°)	(-4.96735062283840e+001dB,1.73072048867442e+002°)
1.25602996369487e+000	(-2.76013434097559e+001dB,8.52045202650746e+001°)	(-4.96335353807530e+001dB,1.73056086796019e+002°)
1.25892541179416e+000	(-2.75814827102305e+001dB,8.51935799159879e+001°)	(-4.95935646755110e+001dB,1.73040087406490e+002°)
1.26182753459066e+000	(-2.75616226491774e+001dB,8.51826145552392e+001°)	(-4.95535941133878e+001dB,1.73024050610589e+002°)
1.26473634747115e+000	(-2.75417632295026e+001dB,8.51716241279319e+001°)	(-4.95136236951171e+001dB,1.73007976319827e+002°)
1.26765186585784e+000	(-2.75219044541248e+001dB,8.51606085790588e+001°)	(-4.94736534214365e+001dB,1.72991864445495e+002°)
1.27057410520854e+000	(-2.75020463259758e+001dB,8.51495678535017e+001°)	(-4.94336832930880e+001dB,1.72975714898660e+002°)
1.27350308101666e+000	(-2.74821888480008e+001dB,8.51385018960315e+001°)	(-4.93937133108175e+001dB,1.72959527590164e+002°)
1.27643880881134e+000	(-2.74623320231579e+001dB,8.51274106513077e+001°)	(-4.93537434753750e+001dB,1.72943302430628e+002°)
1.27938130415752e+000	(-2.74424758544188e+001dB,8.51162940638788e+001°)	(-4.93137737875148e+001dB,1.72927039330446e+002°)
1.28233058265602e+000	(-2.74226203447681e+001dB,8.51051520781815e+001°)	(-4.92738042479953e+001dB,1.72910738199786e+002°)
1.28528665994361e+000	(-2.74027654972042e+001dB,8.50939846385411e+001°)	(-4.92338348575792e+001dB,1.72894398948591e+002°)
1.28824955169313e+000	(-2.73829113147386e+001dB,8.50827916891712e+001°)	(-4.91938656170333e+001dB,1.72878021486578e+002°)
1.29121927361353e+000	(-2.73630578003965e+001dB,8.50715731741735e+001°)	(-4.91538965271287e+001dB,1.72861605723235e+002°)
1.29419584144998e+000	(-2.73432049572166e+001dB,8.50603290375374e+001°)	(-4.91139275886410e+001dB,1.72845151567823e+002°)
1.29717927098395e+000	(-2.73233527882511e+001dB,8.50490592231406e+001°)	(-4.90739588023498e+001dB,1.72828658929374e+002°)
1.30016957803328e+000	(-2.73035012965661e+001dB,8.50377636747483e+001°)	(-4.90339901690392e+001dB,1.72812127716690e+002°)
1.30316677845229e+000	(-2.72836504852412e+001dB,8.50264423360132e+001°)	(-4.89940216894977e+001dB,1.72795557838344e+002°)
1.30617088813183e+000	(-2.72638003573699e+001dB,8.50150951504756e+001°)	(-4.89540533645182e+001dB,1.72778949202679e+002°)
1.30918192299940e+000	(-2.72439509160596e+001dB,8.50037220615629e+001°)	(-4.89140851948979e+001dB,1.72762301717804e+002°)
1.31219989901920e+000	(-2.72241021644315e+001dB,8.49923230125898e+001°)	(-4.88741171814385e+001dB,1.72745615291600e+002°)
1.31522483219223e+000	(-2.72042541056208e+001dB,8.49808979467582e+001°)	(-4.88341493249464e+001dB,1.72728889831711e+002°)
1.31825673855640e+000	(-2.71844067427768e+001dB,8.49694468071565e+001°)	(-4.87941816262322e+001dB,1.72712125245551e+002°)
1.32129563418657e+000	(-2.71645600790628e+001dB,8.49579695367601e+001°)	(-4.87542140861111e+001dB,1.72695321440299e+002°)
1.32434153519466e+000	(-2.71447141176562e+001dB,8.49464660784311e+001°)	(-4.87142467054030e+001dB,1.72678478322899e+002°)
1.32739445772973e+000	(-2.71248688617489e+001dB,8.49349363749180e+001°)	(-4.86742794849324e+001dB,1.72661595800061e+002°)
1.33045441797808e+000	(-2.71050243145467e+001dB,8.49233803688556e+001°)	(-4.86343124255282e+001dB,1.72644673778257e+002°)
1.33352143216332e+000	(-2.70851804792699e+001dB,8.49117980027650e+001°)	(-4.85943455280242e+001dB,1.72627712163725e+002°)
1.33659551654643e+000	(-2.70653373591534e+001dB,8.49001892190535e+001°)	(-4.85543787932587e+001dB,1.72610710862462e+002°)
1.33967668742593e+000	(-2.70454949574462e+001dB,8.48885539600141e+001°)	(-4.85144122220747e+001dB,1.72593669780231e+002°)
1.34276496113786e+000	(-2.70256532774120e+001dB,8.48768921678260e+001°)	(-4.84744458153202e+001dB,1.72576588822553e+002°)
1.34586035405594e+000	(-2.70058123223291e+001dB,8.48652037845539e+001°)	(-4.84344795738477e+001dB,1.72559467894713e+002°)
1.34896288259164e+000	(-2.69859720954905e+001dB,8.48534887521480e+001°)	(-4.83945134985145e+001dB,1.72542306901753e+002°)
1.35207256319427e+000	(-2.69661326002037e+001dB,8.48417470124441e+001°)	(-4.83545475901829e+001dB,1.72525105748476e+002°)
1.35518941235103e+000	(-2.69462938397913e+001dB,8.48299785071633e+001°)	(-4.83145818497200e+001dB,1.72507864339442e+002°)
1.35831344658715e+000	(-2.69264558175903e+001dB,8.48181831779118e+001°)	(-4.82746162779977e+001dB,1.72490582578970e+002°)
1.36144468246594e+000	(-2.69066185369531e+001dB,8.48063609661811e+001°)	(-4.82346508758928e+001dB,1.72473260371137e+002°)
1.36458313658892e+000	(-2.68867820012466e+001dB,8.47945118133475e+001°)	(-4.81946856442872e+001dB,1.72455897619774e+002°)
1.36772882559584e+000	(-2.68669462138531e+001dB,8.47826356606719e+001°)	(-4.81547205840678e+001dB,1.72438494228471e+002°)
1.37088176616484e+000	(-2.68471111781699e+001dB,8.47707324493003e+001°)	(-4.81147556961263e+001dB,1.72421050100570e+002°)
1.37404197501251e+000	(-2.68272768976092e+001dB,8.47588021202630e+001°)	(-4.80747909813595e+001dB,1.72403565139169e+002°)
1.37720946889394e+000	(-2.68074433755988e+001dB,8.47468446144749e+001°)	(-4.80348264406695e+001dB,1.72386039247119e+002°)
1.38038426460288e+000	(-2.67876106155816e+001dB,8.47348598727351e+001°)	(-4.79948620749632e+001dB,1.72368472327025e+002°)
1.38356637897177e+000	(-2.67677786210158e+001dB,8.47228478357269e+001°)	(-4.79548978851529e+001dB,1.72350864281243e+002°)
1.38675582887188e+000	(-2.67479473953752e+001dB,8.47108084440178e+001°)	(-4.79149338721559e+001dB,1.72333215011881e+002°)
1.38995263121334e+000	(-2.67281169421490e+001dB,8.46987416380592e+001°)	(-4.78749700368947e+001dB,1.72315524420798e+002°)
1.39315680294529e+000	(-2.67082872648419e+001dB,8.46866473581862e+001°)	(-4.78350063802973e+001dB,1.72297792409602e+002°)
1.39636836105593e+000	(-2.66884583669744e+001dB,8.46745255446179e+001°)	(-4.77950429032966e+001dB,1.72280018879652e+002°)
1.39958732257261e+000	(-2.66686302520824e+001dB,8.46623761374567e+001°)	(-4.77550796068310e+001dB,1.72262203732055e+002°)
1.40281370456195e+000	(-2.66488029237178e+001dB,8.46501990766887e+001°)	(-4.77151164918443e+001dB,1.72244346867664e+002°)
1.40604752412990e+000	(-2.66289763854483e+001dB,8.46379943021832e+001°)	(-4.76751535592855e+001dB,1.72226448187082e+002°)
1.40928879842186e+000	(-2.66091506408574e+001dB,8.46257617536930e+001°)	(-4.76351908101092e+001dB,1.72208507590657e+002°)
1.41253754462274e+000	(-2.65893256935447e+001dB,8.46135013708536e+001°)	(-4.75952282452752e+001dB,1.72190524978482e+002°)
1.41579377995707e+000	(-2.65695015471256e+001dB,8.46012130931840e+001°)	(-4.75552658657490e+001dB,1.72172500250397e+002°)
1.41905752168908e+000	(-2.65496782052318e+001dB,8.45888968600857e+001°)	(-4.75153036725016e+001dB,1.72154433305983e+002°)
1.42232878712281e+000	(-2.65298556715111e+001dB,8.45765526108432e+001°)	(-4.74753416665093e+001dB,1.72136324044568e+002°)
1.42560759360218e+000	(-2.65100339496276e+001dB,8.45641802846237e+001°)	(-4.74353798487543e+001dB,1.72118172365221e+002°)
1.42889395851109e+000	(-2.64902130432616e+001dB,8.45517798204767e+001°)	(-4.73954182202241e+001dB,1.72099978166751e+002°)
1.43218789927353e+000	(-2.64703929561098e+001dB,8.45393511573345e+001°)	(-4.73554567819123e+001dB,1.72081741347712e+002°)
1.43548943335364e+000	(-2.64505736918854e+001dB,8.45268942340115e+001°)	(-4.73154955348176e+001dB,1.72063461806395e+002°)
1.43879857825583e+000	(-2.64307552543182e+001dB,8.45144089892043e+001°)	(-4.72755344799449e+001dB,1.72045139440833e+002°)
1.44211535152486e+000	(-2.64109376471543e+001dB,8.45018953614918e+001°)	(-4.72355736183047e+001dB,1.72026774148796e+002°)
1.44543977074592e+000	(-2.63911208741567e+001dB,8.44893532893348e+001°)	(-4.71956129509133e+001dB,1.72008365827794e+002°)
1.44877185354475e+000	(-2.63713049391051e+001dB,8.44767827110759e+001°)	(-4.71556524787928e+001dB,1.71989914375073e+002°)
1.45211161758773e+000	(-2.63514898457959e+001dB,8.44641835649397e+001°)	(-4.71156922029712e+001dB,1.71971419687616e+002°)
