Freq.	V(out)
1.00000000000000e+000	(-5.35862863826311e+001dB,1.76380047231188e+002°)
1.00230523807790e+000	(-5.35462818125403e+001dB,1.76371768707205e+002°)
1.00461579027840e+000	(-5.35062772221495e+001dB,1.76363470827684e+002°)
1.00693166885180e+000	(-5.34662726113725e+001dB,1.76355153547807e+002°)
1.00925288607668e+000	(-5.34262679801230e+001dB,1.76346816822648e+002°)
1.01157945425990e+000	(-5.33862633283141e+001dB,1.76338460607171e+002°)
1.01391138573668e+000	(-5.33462586558588e+001dB,1.76330084856233e+002°)
1.01624869287070e+000	(-5.33062539626695e+001dB,1.76321689524579e+002°)
1.01859138805412e+000	(-5.32662492486586e+001dB,1.76313274566847e+002°)
1.02093948370768e+000	(-5.32262445137380e+001dB,1.76304839937562e+002°)
1.02329299228075e+000	(-5.31862397578191e+001dB,1.76296385591142e+002°)
1.02565192625141e+000	(-5.31462349808133e+001dB,1.76287911481892e+002°)
1.02801629812647e+000	(-5.31062301826314e+001dB,1.76279417564007e+002°)
1.03038612044162e+000	(-5.30662253631841e+001dB,1.76270903791572e+002°)
1.03276140576140e+000	(-5.30262205223814e+001dB,1.76262370118559e+002°)
1.03514216667934e+000	(-5.29862156601334e+001dB,1.76253816498830e+002°)
1.03752841581801e+000	(-5.29462107763495e+001dB,1.76245242886133e+002°)
1.03992016582906e+000	(-5.29062058709390e+001dB,1.76236649234105e+002°)
1.04231742939330e+000	(-5.28662009438107e+001dB,1.76228035496272e+002°)
1.04472021922080e+000	(-5.28261959948732e+001dB,1.76219401626044e+002°)
1.04712854805090e+000	(-5.27861910240346e+001dB,1.76210747576720e+002°)
1.04954242865232e+000	(-5.27461860312028e+001dB,1.76202073301485e+002°)
1.05196187382322e+000	(-5.27061810162853e+001dB,1.76193378753411e+002°)
1.05438689639126e+000	(-5.26661759791893e+001dB,1.76184663885455e+002°)
1.05681750921366e+000	(-5.26261709198214e+001dB,1.76175928650461e+002°)
1.05925372517729e+000	(-5.25861658380883e+001dB,1.76167173001158e+002°)
1.06169555719872e+000	(-5.25461607338961e+001dB,1.76158396890158e+002°)
1.06414301822431e+000	(-5.25061556071504e+001dB,1.76149600269961e+002°)
1.06659612123026e+000	(-5.24661504577567e+001dB,1.76140783092950e+002°)
1.06905487922266e+000	(-5.24261452856201e+001dB,1.76131945311393e+002°)
1.07151930523761e+000	(-5.23861400906453e+001dB,1.76123086877441e+002°)
1.07398941234124e+000	(-5.23461348727367e+001dB,1.76114207743130e+002°)
1.07646521362983e+000	(-5.23061296317983e+001dB,1.76105307860377e+002°)
1.07894672222983e+000	(-5.22661243677337e+001dB,1.76096387180985e+002°)
1.08143395129794e+000	(-5.22261190804463e+001dB,1.76087445656637e+002°)
1.08392691402120e+000	(-5.21861137698390e+001dB,1.76078483238901e+002°)
1.08642562361706e+000	(-5.21461084358144e+001dB,1.76069499879225e+002°)
1.08893009333343e+000	(-5.21061030782748e+001dB,1.76060495528940e+002°)
1.09144033644876e+000	(-5.20660976971221e+001dB,1.76051470139258e+002°)
1.09395636627209e+000	(-5.20260922922577e+001dB,1.76042423661273e+002°)
1.09647819614318e+000	(-5.19860868635829e+001dB,1.76033356045959e+002°)
1.09900583943252e+000	(-5.19460814109985e+001dB,1.76024267244172e+002°)
1.10153930954141e+000	(-5.19060759344050e+001dB,1.76015157206646e+002°)
1.10407861990207e+000	(-5.18660704337023e+001dB,1.76006025883996e+002°)
1.10662378397766e+000	(-5.18260649087904e+001dB,1.75996873226718e+002°)
1.10917481526240e+000	(-5.17860593595685e+001dB,1.75987699185186e+002°)
1.11173172728159e+000	(-5.17460537859356e+001dB,1.75978503709653e+002°)
1.11429453359173e+000	(-5.17060481877905e+001dB,1.75969286750250e+002°)
1.11686324778056e+000	(-5.16660425650313e+001dB,1.75960048256990e+002°)
1.11943788346715e+000	(-5.16260369175561e+001dB,1.75950788179759e+002°)
1.12201845430196e+000	(-5.15860312452623e+001dB,1.75941506468325e+002°)
1.12460497396692e+000	(-5.15460255480472e+001dB,1.75932203072331e+002°)
1.12719745617551e+000	(-5.15060198258076e+001dB,1.75922877941298e+002°)
1.12979591467280e+000	(-5.14660140784399e+001dB,1.75913531024623e+002°)
1.13240036323556e+000	(-5.14260083058402e+001dB,1.75904162271580e+002°)
1.13501081567231e+000	(-5.13860025079042e+001dB,1.75894771631321e+002°)
1.13762728582343e+000	(-5.13459966845274e+001dB,1.75885359052870e+002°)
1.14024978756117e+000	(-5.13059908356046e+001dB,1.75875924485130e+002°)
1.14287833478977e+000	(-5.12659849610305e+001dB,1.75866467876877e+002°)
1.14551294144553e+000	(-5.12259790606992e+001dB,1.75856989176763e+002°)
1.14815362149688e+000	(-5.11859731345048e+001dB,1.75847488333314e+002°)
1.15080038894443e+000	(-5.11459671823406e+001dB,1.75837965294930e+002°)
1.15345325782109e+000	(-5.11059612040998e+001dB,1.75828420009886e+002°)
1.15611224219210e+000	(-5.10659551996752e+001dB,1.75818852426329e+002°)
1.15877735615512e+000	(-5.10259491689590e+001dB,1.75809262492280e+002°)
1.16144861384034e+000	(-5.09859431118434e+001dB,1.75799650155633e+002°)
1.16412602941049e+000	(-5.09459370282199e+001dB,1.75790015364154e+002°)
1.16680961706096e+000	(-5.09059309179797e+001dB,1.75780358065482e+002°)
1.16949939101987e+000	(-5.08659247810137e+001dB,1.75770678207127e+002°)
1.17219536554813e+000	(-5.08259186172125e+001dB,1.75760975736470e+002°)
1.17489755493953e+000	(-5.07859124264661e+001dB,1.75751250600765e+002°)
1.17760597352080e+000	(-5.07459062086643e+001dB,1.75741502747136e+002°)
1.18032063565173e+000	(-5.07058999636963e+001dB,1.75731732122576e+002°)
1.18304155572516e+000	(-5.06658936914513e+001dB,1.75721938673950e+002°)
1.18576874816716e+000	(-5.06258873918177e+001dB,1.75712122347993e+002°)
1.18850222743702e+000	(-5.05858810646839e+001dB,1.75702283091308e+002°)
1.19124200802737e+000	(-5.05458747099375e+001dB,1.75692420850367e+002°)
1.19398810446427e+000	(-5.05058683274662e+001dB,1.75682535571513e+002°)
1.19674053130724e+000	(-5.04658619171569e+001dB,1.75672627200955e+002°)
1.19949930314938e+000	(-5.04258554788963e+001dB,1.75662695684771e+002°)
1.20226443461741e+000	(-5.03858490125707e+001dB,1.75652740968907e+002°)
1.20503594037179e+000	(-5.03458425180661e+001dB,1.75642762999176e+002°)
1.20781383510678e+000	(-5.03058359952680e+001dB,1.75632761721258e+002°)
1.21059813355048e+000	(-5.02658294440615e+001dB,1.75622737080700e+002°)
1.21338885046497e+000	(-5.02258228643314e+001dB,1.75612689022914e+002°)
1.21618600064636e+000	(-5.01858162559621e+001dB,1.75602617493179e+002°)
1.21898959892486e+000	(-5.01458096188375e+001dB,1.75592522436641e+002°)
1.22179966016487e+000	(-5.01058029528413e+001dB,1.75582403798308e+002°)
1.22461619926504e+000	(-5.00657962578567e+001dB,1.75572261523055e+002°)
1.22743923115840e+000	(-5.00257895337666e+001dB,1.75562095555621e+002°)
1.23026877081238e+000	(-4.99857827804532e+001dB,1.75551905840610e+002°)
1.23310483322890e+000	(-4.99457759977989e+001dB,1.75541692322487e+002°)
1.23594743344451e+000	(-4.99057691856851e+001dB,1.75531454945585e+002°)
1.23879658653036e+000	(-4.98657623439932e+001dB,1.75521193654095e+002°)
1.24165230759241e+000	(-4.98257554726041e+001dB,1.75510908392073e+002°)
1.24451461177138e+000	(-4.97857485713982e+001dB,1.75500599103439e+002°)
1.24738351424294e+000	(-4.97457416402557e+001dB,1.75490265731972e+002°)
1.25025903021771e+000	(-4.97057346790563e+001dB,1.75479908221314e+002°)
1.25314117494141e+000	(-4.96657276876794e+001dB,1.75469526514968e+002°)
1.25602996369487e+000	(-4.96257206660039e+001dB,1.75459120556298e+002°)
1.25892541179416e+000	(-4.95857136139083e+001dB,1.75448690288528e+002°)
1.26182753459066e+000	(-4.95457065312707e+001dB,1.75438235654742e+002°)
1.26473634747115e+000	(-4.95056994179691e+001dB,1.75427756597884e+002°)
1.26765186585784e+000	(-4.94656922738807e+001dB,1.75417253060758e+002°)
1.27057410520854e+000	(-4.94256850988825e+001dB,1.75406724986024e+002°)
1.27350308101666e+000	(-4.93856778928512e+001dB,1.75396172316205e+002°)
1.27643880881134e+000	(-4.93456706556629e+001dB,1.75385594993678e+002°)
1.27938130415752e+000	(-4.93056633871934e+001dB,1.75374992960681e+002°)
1.28233058265602e+000	(-4.92656560873182e+001dB,1.75364366159308e+002°)
1.28528665994361e+000	(-4.92256487559123e+001dB,1.75353714531508e+002°)
1.28824955169313e+000	(-4.91856413928503e+001dB,1.75343038019091e+002°)
1.29121927361353e+000	(-4.91456339980065e+001dB,1.75332336563719e+002°)
1.29419584144998e+000	(-4.91056265712547e+001dB,1.75321610106912e+002°)
1.29717927098395e+000	(-4.90656191124684e+001dB,1.75310858590046e+002°)
1.30016957803328e+000	(-4.90256116215207e+001dB,1.75300081954350e+002°)
1.30316677845229e+000	(-4.89856040982841e+001dB,1.75289280140909e+002°)
1.30617088813183e+000	(-4.89455965426311e+001dB,1.75278453090662e+002°)
1.30918192299940e+000	(-4.89055889544334e+001dB,1.75267600744402e+002°)
1.31219989901920e+000	(-4.88655813335626e+001dB,1.75256723042776e+002°)
1.31522483219223e+000	(-4.88255736798898e+001dB,1.75245819926282e+002°)
1.31825673855640e+000	(-4.87855659932857e+001dB,1.75234891335272e+002°)
1.32129563418657e+000	(-4.87455582736206e+001dB,1.75223937209952e+002°)
1.32434153519466e+000	(-4.87055505207644e+001dB,1.75212957490376e+002°)
1.32739445772973e+000	(-4.86655427345867e+001dB,1.75201952116453e+002°)
1.33045441797808e+000	(-4.86255349149565e+001dB,1.75190921027940e+002°)
1.33352143216332e+000	(-4.85855270617427e+001dB,1.75179864164448e+002°)
1.33659551654643e+000	(-4.85455191748136e+001dB,1.75168781465436e+002°)
1.33967668742593e+000	(-4.85055112540372e+001dB,1.75157672870213e+002°)
1.34276496113786e+000	(-4.84655032992810e+001dB,1.75146538317937e+002°)
1.34586035405594e+000	(-4.84254953104122e+001dB,1.75135377747616e+002°)
1.34896288259164e+000	(-4.83854872872976e+001dB,1.75124191098107e+002°)
1.35207256319427e+000	(-4.83454792298036e+001dB,1.75112978308114e+002°)
1.35518941235103e+000	(-4.83054711377962e+001dB,1.75101739316188e+002°)
1.35831344658715e+000	(-4.82654630111411e+001dB,1.75090474060729e+002°)
1.36144468246594e+000	(-4.82254548497034e+001dB,1.75079182479983e+002°)
1.36458313658892e+000	(-4.81854466533479e+001dB,1.75067864512044e+002°)
1.36772882559584e+000	(-4.81454384219393e+001dB,1.75056520094849e+002°)
1.37088176616484e+000	(-4.81054301553414e+001dB,1.75045149166184e+002°)
1.37404197501251e+000	(-4.80654218534179e+001dB,1.75033751663677e+002°)
1.37720946889394e+000	(-4.80254135160322e+001dB,1.75022327524803e+002°)
1.38038426460288e+000	(-4.79854051430472e+001dB,1.75010876686882e+002°)
1.38356637897177e+000	(-4.79453967343253e+001dB,1.74999399087074e+002°)
1.38675582887188e+000	(-4.79053882897287e+001dB,1.74987894662387e+002°)
1.38995263121334e+000	(-4.78653798091190e+001dB,1.74976363349669e+002°)
1.39315680294529e+000	(-4.78253712923577e+001dB,1.74964805085613e+002°)
1.39636836105593e+000	(-4.77853627393058e+001dB,1.74953219806751e+002°)
1.39958732257261e+000	(-4.77453541498237e+001dB,1.74941607449460e+002°)
1.40281370456195e+000	(-4.77053455237717e+001dB,1.74929967949956e+002°)
1.40604752412990e+000	(-4.76653368610096e+001dB,1.74918301244297e+002°)
1.40928879842186e+000	(-4.76253281613969e+001dB,1.74906607268381e+002°)
1.41253754462274e+000	(-4.75853194247925e+001dB,1.74894885957946e+002°)
1.41579377995707e+000	(-4.75453106510551e+001dB,1.74883137248570e+002°)
1.41905752168908e+000	(-4.75053018400431e+001dB,1.74871361075669e+002°)
1.42232878712281e+000	(-4.74652929916143e+001dB,1.74859557374498e+002°)
1.42560759360218e+000	(-4.74252841056262e+001dB,1.74847726080151e+002°)
1.42889395851109e+000	(-4.73852751819361e+001dB,1.74835867127559e+002°)
1.43218789927353e+000	(-4.73452662204006e+001dB,1.74823980451489e+002°)
1.43548943335364e+000	(-4.73052572208762e+001dB,1.74812065986548e+002°)
1.43879857825583e+000	(-4.72652481832189e+001dB,1.74800123667176e+002°)
1.44211535152486e+000	(-4.72252391072843e+001dB,1.74788153427651e+002°)
1.44543977074592e+000	(-4.71852299929278e+001dB,1.74776155202086e+002°)
1.44877185354475e+000	(-4.71452208400041e+001dB,1.74764128924427e+002°)
1.45211161758773e+000	(-4.71052116483679e+001dB,1.74752074528458e+002°)
1.45545908058195e+000	(-4.70652024178732e+001dB,1.74739991947794e+002°)
1.45881426027534e+000	(-4.70251931483740e+001dB,1.74727881115885e+002°)
1.46217717445671e+000	(-4.69851838397235e+001dB,1.74715741966015e+002°)
1.46554784095590e+000	(-4.69451744917748e+001dB,1.74703574431297e+002°)
1.46892627764385e+000	(-4.69051651043807e+001dB,1.74691378444680e+002°)
1.47231250243271e+000	(-4.68651556773934e+001dB,1.74679153938943e+002°)
1.47570653327588e+000	(-4.68251462106650e+001dB,1.74666900846697e+002°)
1.47910838816819e+000	(-4.67851367040469e+001dB,1.74654619100382e+002°)
1.48251808514594e+000	(-4.67451271573905e+001dB,1.74642308632269e+002°)
1.48593564228699e+000	(-4.67051175705466e+001dB,1.74629969374461e+002°)
1.48936107771090e+000	(-4.66651079433657e+001dB,1.74617601258887e+002°)
1.49279440957898e+000	(-4.66250982756979e+001dB,1.74605204217306e+002°)
1.49623565609442e+000	(-4.65850885673932e+001dB,1.74592778181305e+002°)
1.49968483550236e+000	(-4.65450788183009e+001dB,1.74580323082301e+002°)
1.50314196609001e+000	(-4.65050690282701e+001dB,1.74567838851535e+002°)
1.50660706618673e+000	(-4.64650591971496e+001dB,1.74555325420077e+002°)
1.51008015416413e+000	(-4.64250493247877e+001dB,1.74542782718822e+002°)
1.51356124843619e+000	(-4.63850394110326e+001dB,1.74530210678493e+002°)
1.51705036745932e+000	(-4.63450294557319e+001dB,1.74517609229635e+002°)
1.52054752973248e+000	(-4.63050194587330e+001dB,1.74504978302621e+002°)
1.52405275379728e+000	(-4.62650094198828e+001dB,1.74492317827647e+002°)
1.52756605823806e+000	(-4.62249993390282e+001dB,1.74479627734733e+002°)
1.53108746168202e+000	(-4.61849892160153e+001dB,1.74466907953721e+002°)
1.53461698279928e+000	(-4.61449790506903e+001dB,1.74454158414277e+002°)
1.53815464030302e+000	(-4.61049688428987e+001dB,1.74441379045892e+002°)
1.54170045294954e+000	(-4.60649585924859e+001dB,1.74428569777873e+002°)
1.54525443953840e+000	(-4.60249482992969e+001dB,1.74415730539353e+002°)
1.54881661891247e+000	(-4.59849379631764e+001dB,1.74402861259285e+002°)
1.55238700995807e+000	(-4.59449275839687e+001dB,1.74389961866440e+002°)
1.55596563160506e+000	(-4.59049171615178e+001dB,1.74377032289410e+002°)
1.55955250282694e+000	(-4.58649066956674e+001dB,1.74364072456609e+002°)
1.56314764264094e+000	(-4.58248961862609e+001dB,1.74351082296264e+002°)
1.56675107010813e+000	(-4.57848856331413e+001dB,1.74338061736426e+002°)
1.57036280433354e+000	(-4.57448750361515e+001dB,1.74325010704960e+002°)
1.57398286446620e+000	(-4.57048643951337e+001dB,1.74311929129548e+002°)
1.57761126969933e+000	(-4.56648537099301e+001dB,1.74298816937692e+002°)
1.58124803927037e+000	(-4.56248429803826e+001dB,1.74285674056707e+002°)
1.58489319246110e+000	(-4.55848322063326e+001dB,1.74272500413724e+002°)
1.58854674859776e+000	(-4.55448213876213e+001dB,1.74259295935689e+002°)
1.59220872705115e+000	(-4.55048105240896e+001dB,1.74246060549365e+002°)
1.59587914723672e+000	(-4.54647996155780e+001dB,1.74232794181324e+002°)
1.59955802861465e+000	(-4.54247886619270e+001dB,1.74219496757956e+002°)
1.60324539069002e+000	(-4.53847776629765e+001dB,1.74206168205462e+002°)
1.60694125301286e+000	(-4.53447666185661e+001dB,1.74192808449854e+002°)
1.61064563517825e+000	(-4.53047555285353e+001dB,1.74179417416959e+002°)
1.61435855682647e+000	(-4.52647443927234e+001dB,1.74165995032412e+002°)
1.61808003764305e+000	(-4.52247332109690e+001dB,1.74152541221660e+002°)
1.62181009735891e+000	(-4.51847219831108e+001dB,1.74139055909961e+002°)
1.62554875575047e+000	(-4.51447107089870e+001dB,1.74125539022381e+002°)
1.62929603263970e+000	(-4.51046993884358e+001dB,1.74111990483795e+002°)
1.63305194789432e+000	(-4.50646880212948e+001dB,1.74098410218888e+002°)
1.63681652142779e+000	(-4.50246766074016e+001dB,1.74084798152151e+002°)
1.64058977319952e+000	(-4.49846651465934e+001dB,1.74071154207885e+002°)
1.64437172321491e+000	(-4.49446536387071e+001dB,1.74057478310193e+002°)
1.64816239152549e+000	(-4.49046420835794e+001dB,1.74043770382990e+002°)
1.65196179822900e+000	(-4.48646304810468e+001dB,1.74030030349992e+002°)
1.65576996346951e+000	(-4.48246188309455e+001dB,1.74016258134722e+002°)
1.65958690743754e+000	(-4.47846071331115e+001dB,1.74002453660508e+002°)
1.66341265037015e+000	(-4.47445953873804e+001dB,1.73988616850480e+002°)
1.66724721255104e+000	(-4.47045835935877e+001dB,1.73974747627573e+002°)
1.67109061431069e+000	(-4.46645717515688e+001dB,1.73960845914524e+002°)
1.67494287602642e+000	(-4.46245598611584e+001dB,1.73946911633872e+002°)
1.67880401812254e+000	(-4.45845479221916e+001dB,1.73932944707958e+002°)
1.68267406107045e+000	(-4.45445359345027e+001dB,1.73918945058924e+002°)
1.68655302538872e+000	(-4.45045238979262e+001dB,1.73904912608712e+002°)
1.69044093164324e+000	(-4.44645118122961e+001dB,1.73890847279063e+002°)
1.69433780044731e+000	(-4.44244996774464e+001dB,1.73876748991520e+002°)
1.69824365246172e+000	(-4.43844874932108e+001dB,1.73862617667420e+002°)
1.70215850839493e+000	(-4.43444752594226e+001dB,1.73848453227903e+002°)
1.70608238900310e+000	(-4.43044629759153e+001dB,1.73834255593903e+002°)
1.71001531509027e+000	(-4.42644506425220e+001dB,1.73820024686152e+002°)
1.71395730750840e+000	(-4.42244382590754e+001dB,1.73805760425178e+002°)
1.71790838715757e+000	(-4.41844258254084e+001dB,1.73791462731304e+002°)
1.72186857498599e+000	(-4.41444133413535e+001dB,1.73777131524650e+002°)
1.72583789199018e+000	(-4.41044008067430e+001dB,1.73762766725128e+002°)
1.72981635921508e+000	(-4.40643882214092e+001dB,1.73748368252445e+002°)
1.73380399775412e+000	(-4.40243755851840e+001dB,1.73733936026100e+002°)
1.73780082874935e+000	(-4.39843628978994e+001dB,1.73719469965386e+002°)
1.74180687339159e+000	(-4.39443501593869e+001dB,1.73704969989387e+002°)
1.74582215292048e+000	(-4.39043373694782e+001dB,1.73690436016978e+002°)
1.74984668862464e+000	(-4.38643245280046e+001dB,1.73675867966826e+002°)
1.75388050184174e+000	(-4.38243116347975e+001dB,1.73661265757386e+002°)
1.75792361395867e+000	(-4.37842986896879e+001dB,1.73646629306903e+002°)
1.76197604641161e+000	(-4.37442856925068e+001dB,1.73631958533412e+002°)
1.76603782068614e+000	(-4.37042726430850e+001dB,1.73617253354736e+002°)
1.77010895831740e+000	(-4.36642595412534e+001dB,1.73602513688483e+002°)
1.77418948089014e+000	(-4.36242463868425e+001dB,1.73587739452049e+002°)
1.77827941003890e+000	(-4.35842331796829e+001dB,1.73572930562619e+002°)
1.78237876744807e+000	(-4.35442199196049e+001dB,1.73558086937159e+002°)
1.78648757485203e+000	(-4.35042066064389e+001dB,1.73543208492423e+002°)
1.79060585403527e+000	(-4.34641932400150e+001dB,1.73528295144949e+002°)
1.79473362683250e+000	(-4.34241798201635e+001dB,1.73513346811055e+002°)
1.79887091512876e+000	(-4.33841663467143e+001dB,1.73498363406848e+002°)
1.80301774085955e+000	(-4.33441528194975e+001dB,1.73483344848212e+002°)
1.80717412601090e+000	(-4.33041392383429e+001dB,1.73468291050814e+002°)
1.81134009261958e+000	(-4.32641256030804e+001dB,1.73453201930104e+002°)
1.81551566277311e+000	(-4.32241119135397e+001dB,1.73438077401310e+002°)
1.81970085860996e+000	(-4.31840981695507e+001dB,1.73422917379441e+002°)
1.82389570231961e+000	(-4.31440843709430e+001dB,1.73407721779283e+002°)
1.82810021614272e+000	(-4.31040705175463e+001dB,1.73392490515401e+002°)
1.83231442237119e+000	(-4.30640566091902e+001dB,1.73377223502140e+002°)
1.83653834334832e+000	(-4.30240426457044e+001dB,1.73361920653618e+002°)
1.84077200146893e+000	(-4.29840286269183e+001dB,1.73346581883732e+002°)
1.84501541917945e+000	(-4.29440145526617e+001dB,1.73331207106153e+002°)
1.84926861897805e+000	(-4.29040004227641e+001dB,1.73315796234328e+002°)
1.85353162341479e+000	(-4.28639862370551e+001dB,1.73300349181477e+002°)
1.85780445509167e+000	(-4.28239719953642e+001dB,1.73284865860594e+002°)
1.86208713666284e+000	(-4.27839576975213e+001dB,1.73269346184445e+002°)
1.86637969083464e+000	(-4.27439433433558e+001dB,1.73253790065570e+002°)
1.87068214036577e+000	(-4.27039289326975e+001dB,1.73238197416278e+002°)
1.87499450806739e+000	(-4.26639144653762e+001dB,1.73222568148649e+002°)
1.87931681680324e+000	(-4.26238999412216e+001dB,1.73206902174536e+002°)
1.88364908948977e+000	(-4.25838853600636e+001dB,1.73191199405556e+002°)
1.88799134909627e+000	(-4.25438707217321e+001dB,1.73175459753098e+002°)
