Freq.	V(out)
1.00000000000000e+000	(-4.40436127517268e+001dB,1.76380313170101e+002°)
1.00230523807790e+000	(-4.40036081816368e+001dB,1.76372035259170e+002°)
1.00461579027840e+000	(-4.39636035912469e+001dB,1.76363737994115e+002°)
1.00693166885180e+000	(-4.39235989804708e+001dB,1.76355421330120e+002°)
1.00925288607668e+000	(-4.38835943492221e+001dB,1.76347085222263e+002°)
1.01157945425990e+000	(-4.38435896974140e+001dB,1.76338729625512e+002°)
1.01391138573668e+000	(-4.38035850249596e+001dB,1.76330354494725e+002°)
1.01624869287070e+000	(-4.37635803317712e+001dB,1.76321959784652e+002°)
1.01859138805412e+000	(-4.37235756177612e+001dB,1.76313545449933e+002°)
1.02093948370768e+000	(-4.36835708828414e+001dB,1.76305111445099e+002°)
1.02329299228075e+000	(-4.36435661269234e+001dB,1.76296657724568e+002°)
1.02565192625141e+000	(-4.36035613499185e+001dB,1.76288184242650e+002°)
1.02801629812647e+000	(-4.35635565517375e+001dB,1.76279690953544e+002°)
1.03038612044162e+000	(-4.35235517322910e+001dB,1.76271177811337e+002°)
1.03276140576140e+000	(-4.34835468914893e+001dB,1.76262644770005e+002°)
1.03514216667934e+000	(-4.34435420292421e+001dB,1.76254091783412e+002°)
1.03752841581801e+000	(-4.34035371454592e+001dB,1.76245518805312e+002°)
1.03992016582906e+000	(-4.33635322400496e+001dB,1.76236925789344e+002°)
1.04231742939330e+000	(-4.33235273129222e+001dB,1.76228312689036e+002°)
1.04472021922080e+000	(-4.32835223639856e+001dB,1.76219679457803e+002°)
1.04712854805090e+000	(-4.32435173931479e+001dB,1.76211026048948e+002°)
1.04954242865232e+000	(-4.32035124003171e+001dB,1.76202352415658e+002°)
1.05196187382322e+000	(-4.31635073854005e+001dB,1.76193658511008e+002°)
1.05438689639126e+000	(-4.31235023483054e+001dB,1.76184944287961e+002°)
1.05681750921366e+000	(-4.30834972889385e+001dB,1.76176209699361e+002°)
1.05925372517729e+000	(-4.30434922072063e+001dB,1.76167454697942e+002°)
1.06169555719872e+000	(-4.30034871030150e+001dB,1.76158679236320e+002°)
1.06414301822431e+000	(-4.29634819762703e+001dB,1.76149883266999e+002°)
1.06659612123026e+000	(-4.29234768268776e+001dB,1.76141066742364e+002°)
1.06905487922266e+000	(-4.28834716547419e+001dB,1.76132229614686e+002°)
1.07151930523761e+000	(-4.28434664597681e+001dB,1.76123371836121e+002°)
1.07398941234124e+000	(-4.28034612418605e+001dB,1.76114493358707e+002°)
1.07646521362983e+000	(-4.27634560009230e+001dB,1.76105594134366e+002°)
1.07894672222983e+000	(-4.27234507368594e+001dB,1.76096674114903e+002°)
1.08143395129794e+000	(-4.26834454495730e+001dB,1.76087733252007e+002°)
1.08392691402120e+000	(-4.26434401389667e+001dB,1.76078771497246e+002°)
1.08642562361706e+000	(-4.26034348049431e+001dB,1.76069788802074e+002°)
1.08893009333343e+000	(-4.25634294474045e+001dB,1.76060785117825e+002°)
1.09144033644876e+000	(-4.25234240662527e+001dB,1.76051760395715e+002°)
1.09395636627209e+000	(-4.24834186613894e+001dB,1.76042714586840e+002°)
1.09647819614318e+000	(-4.24434132327156e+001dB,1.76033647642179e+002°)
1.09900583943252e+000	(-4.24034077801322e+001dB,1.76024559512591e+002°)
1.10153930954141e+000	(-4.23634023035397e+001dB,1.76015450148813e+002°)
1.10407861990207e+000	(-4.23233968028381e+001dB,1.76006319501464e+002°)
1.10662378397766e+000	(-4.22833912779272e+001dB,1.75997167521045e+002°)
1.10917481526240e+000	(-4.22433857287063e+001dB,1.75987994157931e+002°)
1.11173172728159e+000	(-4.22033801550745e+001dB,1.75978799362380e+002°)
1.11429453359173e+000	(-4.21633745569304e+001dB,1.75969583084528e+002°)
1.11686324778056e+000	(-4.21233689341723e+001dB,1.75960345274389e+002°)
1.11943788346715e+000	(-4.20833632866981e+001dB,1.75951085881854e+002°)
1.12201845430196e+000	(-4.20433576144054e+001dB,1.75941804856694e+002°)
1.12460497396692e+000	(-4.20033519171914e+001dB,1.75932502148556e+002°)
1.12719745617551e+000	(-4.19633461949528e+001dB,1.75923177706964e+002°)
1.12979591467280e+000	(-4.19233404475862e+001dB,1.75913831481321e+002°)
1.13240036323556e+000	(-4.18833346749875e+001dB,1.75904463420902e+002°)
1.13501081567231e+000	(-4.18433288770527e+001dB,1.75895073474864e+002°)
1.13762728582343e+000	(-4.18033230536769e+001dB,1.75885661592234e+002°)
1.14024978756117e+000	(-4.17633172047552e+001dB,1.75876227721919e+002°)
1.14287833478977e+000	(-4.17233113301822e+001dB,1.75866771812699e+002°)
1.14551294144553e+000	(-4.16833054298521e+001dB,1.75857293813230e+002°)
1.14815362149688e+000	(-4.16432995036588e+001dB,1.75847793672040e+002°)
1.15080038894443e+000	(-4.16032935514957e+001dB,1.75838271337535e+002°)
1.15345325782109e+000	(-4.15632875732560e+001dB,1.75828726757992e+002°)
1.15611224219210e+000	(-4.15232815688325e+001dB,1.75819159881563e+002°)
1.15877735615512e+000	(-4.14832755381175e+001dB,1.75809570656271e+002°)
1.16144861384034e+000	(-4.14432694810030e+001dB,1.75799959030016e+002°)
1.16412602941049e+000	(-4.14032633973806e+001dB,1.75790324950566e+002°)
1.16680961706096e+000	(-4.13632572871415e+001dB,1.75780668365564e+002°)
1.16949939101987e+000	(-4.13232511501767e+001dB,1.75770989222524e+002°)
1.17219536554813e+000	(-4.12832449863767e+001dB,1.75761287468832e+002°)
1.17489755493953e+000	(-4.12432387956314e+001dB,1.75751563051745e+002°)
1.17760597352080e+000	(-4.12032325778308e+001dB,1.75741815918389e+002°)
1.18032063565173e+000	(-4.11632263328640e+001dB,1.75732046015764e+002°)
1.18304155572516e+000	(-4.11232200606201e+001dB,1.75722253290737e+002°)
1.18576874816716e+000	(-4.10832137609878e+001dB,1.75712437690046e+002°)
1.18850222743702e+000	(-4.10432074338551e+001dB,1.75702599160299e+002°)
1.19124200802737e+000	(-4.10032010791100e+001dB,1.75692737647973e+002°)
1.19398810446427e+000	(-4.09631946966398e+001dB,1.75682853099413e+002°)
1.19674053130724e+000	(-4.09231882863317e+001dB,1.75672945460832e+002°)
1.19949930314938e+000	(-4.08831818480723e+001dB,1.75663014678313e+002°)
1.20226443461741e+000	(-4.08431753817480e+001dB,1.75653060697805e+002°)
1.20503594037179e+000	(-4.08031688872446e+001dB,1.75643083465126e+002°)
1.20781383510678e+000	(-4.07631623644477e+001dB,1.75633082925958e+002°)
1.21059813355048e+000	(-4.07231558132424e+001dB,1.75623059025853e+002°)
1.21338885046497e+000	(-4.06831492335136e+001dB,1.75613011710227e+002°)
1.21618600064636e+000	(-4.06431426251455e+001dB,1.75602940924364e+002°)
1.21898959892486e+000	(-4.06031359880222e+001dB,1.75592846613411e+002°)
1.22179966016487e+000	(-4.05631293220272e+001dB,1.75582728722383e+002°)
1.22461619926504e+000	(-4.05231226270439e+001dB,1.75572587196157e+002°)
1.22743923115840e+000	(-4.04831159029550e+001dB,1.75562421979477e+002°)
1.23026877081238e+000	(-4.04431091496430e+001dB,1.75552233016951e+002°)
1.23310483322890e+000	(-4.04031023669899e+001dB,1.75542020253048e+002°)
1.23594743344451e+000	(-4.03630955548774e+001dB,1.75531783632103e+002°)
1.23879658653036e+000	(-4.03230887131868e+001dB,1.75521523098314e+002°)
1.24165230759241e+000	(-4.02830818417989e+001dB,1.75511238595740e+002°)
1.24451461177138e+000	(-4.02430749405944e+001dB,1.75500930068304e+002°)
1.24738351424294e+000	(-4.02030680094532e+001dB,1.75490597459789e+002°)
1.25025903021771e+000	(-4.01630610482552e+001dB,1.75480240713843e+002°)
1.25314117494141e+000	(-4.01230540568795e+001dB,1.75469859773972e+002°)
1.25602996369487e+000	(-4.00830470352053e+001dB,1.75459454583543e+002°)
1.25892541179416e+000	(-4.00430399831111e+001dB,1.75449025085785e+002°)
1.26182753459066e+000	(-4.00030329004749e+001dB,1.75438571223787e+002°)
1.26473634747115e+000	(-3.99630257871746e+001dB,1.75428092940495e+002°)
1.26765186585784e+000	(-3.99230186430875e+001dB,1.75417590178718e+002°)
1.27057410520854e+000	(-3.98830114680907e+001dB,1.75407062881122e+002°)
1.27350308101666e+000	(-3.98430042620607e+001dB,1.75396510990232e+002°)
1.27643880881134e+000	(-3.98029970248738e+001dB,1.75385934448429e+002°)
1.27938130415752e+000	(-3.97629897564057e+001dB,1.75375333197956e+002°)
1.28233058265602e+000	(-3.97229824565319e+001dB,1.75364707180911e+002°)
1.28528665994361e+000	(-3.96829751251274e+001dB,1.75354056339247e+002°)
1.28824955169313e+000	(-3.96429677620668e+001dB,1.75343380614778e+002°)
1.29121927361353e+000	(-3.96029603672244e+001dB,1.75332679949171e+002°)
1.29419584144998e+000	(-3.95629529404740e+001dB,1.75321954283949e+002°)
1.29717927098395e+000	(-3.95229454816891e+001dB,1.75311203560493e+002°)
1.30016957803328e+000	(-3.94829379907428e+001dB,1.75300427720036e+002°)
1.30316677845229e+000	(-3.94429304675077e+001dB,1.75289626703667e+002°)
1.30617088813183e+000	(-3.94029229118561e+001dB,1.75278800452330e+002°)
1.30918192299940e+000	(-3.93629153236598e+001dB,1.75267948906822e+002°)
1.31219989901920e+000	(-3.93229077027905e+001dB,1.75257072007793e+002°)
1.31522483219223e+000	(-3.92829000491192e+001dB,1.75246169695746e+002°)
1.31825673855640e+000	(-3.92428923625165e+001dB,1.75235241911038e+002°)
1.32129563418657e+000	(-3.92028846428529e+001dB,1.75224288593878e+002°)
1.32434153519466e+000	(-3.91628768899981e+001dB,1.75213309684326e+002°)
1.32739445772973e+000	(-3.91228691038219e+001dB,1.75202305122294e+002°)
1.33045441797808e+000	(-3.90828612841932e+001dB,1.75191274847544e+002°)
1.33352143216332e+000	(-3.90428534309809e+001dB,1.75180218799691e+002°)
1.33659551654643e+000	(-3.90028455440533e+001dB,1.75169136918197e+002°)
1.33967668742593e+000	(-3.89628376232784e+001dB,1.75158029142377e+002°)
1.34276496113786e+000	(-3.89228296685237e+001dB,1.75146895411393e+002°)
1.34586035405594e+000	(-3.88828216796565e+001dB,1.75135735664258e+002°)
1.34896288259164e+000	(-3.88428136565434e+001dB,1.75124549839832e+002°)
1.35207256319427e+000	(-3.88028055990510e+001dB,1.75113337876824e+002°)
1.35518941235103e+000	(-3.87627975070451e+001dB,1.75102099713789e+002°)
1.35831344658715e+000	(-3.87227893803915e+001dB,1.75090835289133e+002°)
1.36144468246594e+000	(-3.86827812189554e+001dB,1.75079544541105e+002°)
1.36458313658892e+000	(-3.86427730226015e+001dB,1.75068227407802e+002°)
1.36772882559584e+000	(-3.86027647911944e+001dB,1.75056883827169e+002°)
1.37088176616484e+000	(-3.85627565245981e+001dB,1.75045513736993e+002°)
1.37404197501251e+000	(-3.85227482226762e+001dB,1.75034117074909e+002°)
1.37720946889394e+000	(-3.84827398852922e+001dB,1.75022693778395e+002°)
1.38038426460288e+000	(-3.84427315123087e+001dB,1.75011243784775e+002°)
1.38356637897177e+000	(-3.84027231035884e+001dB,1.74999767031216e+002°)
1.38675582887188e+000	(-3.83627146589934e+001dB,1.74988263454727e+002°)
1.38995263121334e+000	(-3.83227061783854e+001dB,1.74976732992164e+002°)
1.39315680294529e+000	(-3.82826976616258e+001dB,1.74965175580221e+002°)
1.39636836105593e+000	(-3.82426891085754e+001dB,1.74953591155438e+002°)
1.39958732257261e+000	(-3.82026805190950e+001dB,1.74941979654194e+002°)
1.40281370456195e+000	(-3.81626718930447e+001dB,1.74930341012710e+002°)
1.40604752412990e+000	(-3.81226632302842e+001dB,1.74918675167050e+002°)
1.40928879842186e+000	(-3.80826545306731e+001dB,1.74906982053115e+002°)
1.41253754462274e+000	(-3.80426457940704e+001dB,1.74895261606648e+002°)
1.41579377995707e+000	(-3.80026370203348e+001dB,1.74883513763232e+002°)
1.41905752168908e+000	(-3.79626282093244e+001dB,1.74871738458287e+002°)
1.42232878712281e+000	(-3.79226193608973e+001dB,1.74859935627073e+002°)
1.42560759360218e+000	(-3.78826104749110e+001dB,1.74848105204688e+002°)
1.42889395851109e+000	(-3.78426015512226e+001dB,1.74836247126068e+002°)
1.43218789927353e+000	(-3.78025925896888e+001dB,1.74824361325986e+002°)
1.43548943335364e+000	(-3.77625835901662e+001dB,1.74812447739051e+002°)
1.43879857825583e+000	(-3.77225745525106e+001dB,1.74800506299709e+002°)
1.44211535152486e+000	(-3.76825654765778e+001dB,1.74788536942244e+002°)
1.44543977074592e+000	(-3.76425563622230e+001dB,1.74776539600770e+002°)
1.44877185354475e+000	(-3.76025472093011e+001dB,1.74764514209243e+002°)
1.45211161758773e+000	(-3.75625380176666e+001dB,1.74752460701447e+002°)
1.45545908058195e+000	(-3.75225287871738e+001dB,1.74740379011004e+002°)
1.45881426027534e+000	(-3.74825195176763e+001dB,1.74728269071368e+002°)
1.46217717445671e+000	(-3.74425102090276e+001dB,1.74716130815827e+002°)
1.46554784095590e+000	(-3.74025008610808e+001dB,1.74703964177500e+002°)
1.46892627764385e+000	(-3.73624914736885e+001dB,1.74691769089341e+002°)
1.47231250243271e+000	(-3.73224820467030e+001dB,1.74679545484133e+002°)
1.47570653327588e+000	(-3.72824725799764e+001dB,1.74667293294492e+002°)
1.47910838816819e+000	(-3.72424630733602e+001dB,1.74655012452862e+002°)
1.48251808514594e+000	(-3.72024535267056e+001dB,1.74642702891521e+002°)
1.48593564228699e+000	(-3.71624439398635e+001dB,1.74630364542574e+002°)
1.48936107771090e+000	(-3.71224343126845e+001dB,1.74617997337957e+002°)
1.49279440957898e+000	(-3.70824246450186e+001dB,1.74605601209432e+002°)
1.49623565609442e+000	(-3.70424149367158e+001dB,1.74593176088593e+002°)
1.49968483550236e+000	(-3.70024051876253e+001dB,1.74580721906860e+002°)
1.50314196609001e+000	(-3.69623953975965e+001dB,1.74568238595480e+002°)
1.50660706618673e+000	(-3.69223855664779e+001dB,1.74555726085527e+002°)
1.51008015416413e+000	(-3.68823756941179e+001dB,1.74543184307901e+002°)
1.51356124843619e+000	(-3.68423657803647e+001dB,1.74530613193330e+002°)
1.51705036745932e+000	(-3.68023558250660e+001dB,1.74518012672365e+002°)
1.52054752973248e+000	(-3.67623458280690e+001dB,1.74505382675383e+002°)
1.52405275379728e+000	(-3.67223357892208e+001dB,1.74492723132584e+002°)
1.52756605823806e+000	(-3.66823257083681e+001dB,1.74480033973994e+002°)
1.53108746168202e+000	(-3.66423155853572e+001dB,1.74467315129460e+002°)
1.53461698279928e+000	(-3.66023054200342e+001dB,1.74454566528654e+002°)
1.53815464030302e+000	(-3.65622952122446e+001dB,1.74441788101069e+002°)
1.54170045294954e+000	(-3.65222849618338e+001dB,1.74428979776020e+002°)
1.54525443953840e+000	(-3.64822746686468e+001dB,1.74416141482644e+002°)
1.54881661891247e+000	(-3.64422643325283e+001dB,1.74403273149897e+002°)
1.55238700995807e+000	(-3.64022539533226e+001dB,1.74390374706558e+002°)
1.55596563160506e+000	(-3.63622435308737e+001dB,1.74377446081224e+002°)
1.55955250282694e+000	(-3.63222330650254e+001dB,1.74364487202311e+002°)
1.56314764264094e+000	(-3.62822225556210e+001dB,1.74351497998054e+002°)
1.56675107010813e+000	(-3.62422120025035e+001dB,1.74338478396507e+002°)
1.57036280433354e+000	(-3.62022014055157e+001dB,1.74325428325542e+002°)
1.57398286446620e+000	(-3.61621907645000e+001dB,1.74312347712846e+002°)
1.57761126969933e+000	(-3.61221800792986e+001dB,1.74299236485924e+002°)
1.58124803927037e+000	(-3.60821693497531e+001dB,1.74286094572097e+002°)
1.58489319246110e+000	(-3.60421585757052e+001dB,1.74272921898502e+002°)
1.58854674859776e+000	(-3.60021477569960e+001dB,1.74259718392090e+002°)
1.59220872705115e+000	(-3.59621368934665e+001dB,1.74246483979628e+002°)
1.59587914723672e+000	(-3.59221259849571e+001dB,1.74233218587695e+002°)
1.59955802861465e+000	(-3.58821150313082e+001dB,1.74219922142685e+002°)
1.60324539069002e+000	(-3.58421040323598e+001dB,1.74206594570804e+002°)
1.60694125301286e+000	(-3.58020929879516e+001dB,1.74193235798070e+002°)
1.61064563517825e+000	(-3.57620818979231e+001dB,1.74179845750314e+002°)
1.61435855682647e+000	(-3.57220707621133e+001dB,1.74166424353177e+002°)
1.61808003764305e+000	(-3.56820595803611e+001dB,1.74152971532112e+002°)
1.62181009735891e+000	(-3.56420483525051e+001dB,1.74139487212381e+002°)
1.62554875575047e+000	(-3.56020370783836e+001dB,1.74125971319056e+002°)
1.62929603263970e+000	(-3.55620257578346e+001dB,1.74112423777017e+002°)
1.63305194789432e+000	(-3.55220143906959e+001dB,1.74098844510954e+002°)
1.63681652142779e+000	(-3.54820029768049e+001dB,1.74085233445364e+002°)
1.64058977319952e+000	(-3.54419915159989e+001dB,1.74071590504552e+002°)
1.64437172321491e+000	(-3.54019800081149e+001dB,1.74057915612628e+002°)
1.64816239152549e+000	(-3.53619684529895e+001dB,1.74044208693511e+002°)
1.65196179822900e+000	(-3.53219568504592e+001dB,1.74030469670923e+002°)
1.65576996346951e+000	(-3.52819452003602e+001dB,1.74016698468393e+002°)
1.65958690743754e+000	(-3.52419335025285e+001dB,1.74002895009253e+002°)
1.66341265037015e+000	(-3.52019217567998e+001dB,1.73989059216639e+002°)
1.66724721255104e+000	(-3.51619099630094e+001dB,1.73975191013491e+002°)
1.67109061431069e+000	(-3.51218981209928e+001dB,1.73961290322552e+002°)
1.67494287602642e+000	(-3.50818862305849e+001dB,1.73947357066367e+002°)
1.67880401812254e+000	(-3.50418742916204e+001dB,1.73933391167281e+002°)
1.68267406107045e+000	(-3.50018623039339e+001dB,1.73919392547442e+002°)
1.68655302538872e+000	(-3.49618502673598e+001dB,1.73905361128797e+002°)
1.69044093164324e+000	(-3.49218381817321e+001dB,1.73891296833094e+002°)
1.69433780044731e+000	(-3.48818260468848e+001dB,1.73877199581879e+002°)
1.69824365246172e+000	(-3.48418138626516e+001dB,1.73863069296498e+002°)
1.70215850839493e+000	(-3.48018016288659e+001dB,1.73848905898093e+002°)
1.70608238900310e+000	(-3.47617893453611e+001dB,1.73834709307606e+002°)
1.71001531509027e+000	(-3.47217770119701e+001dB,1.73820479445773e+002°)
1.71395730750840e+000	(-3.46817646285261e+001dB,1.73806216233128e+002°)
1.71790838715757e+000	(-3.46417521948616e+001dB,1.73791919590001e+002°)
1.72186857498599e+000	(-3.46017397108091e+001dB,1.73777589436515e+002°)
1.72583789199018e+000	(-3.45617271762012e+001dB,1.73763225692589e+002°)
1.72981635921508e+000	(-3.45217145908699e+001dB,1.73748828277935e+002°)
1.73380399775412e+000	(-3.44817019546472e+001dB,1.73734397112058e+002°)
1.73780082874935e+000	(-3.44416892673651e+001dB,1.73719932114257e+002°)
1.74180687339159e+000	(-3.44016765288552e+001dB,1.73705433203621e+002°)
1.74582215292048e+000	(-3.43616637389491e+001dB,1.73690900299032e+002°)
1.74984668862464e+000	(-3.43216508974781e+001dB,1.73676333319160e+002°)
1.75388050184174e+000	(-3.42816380042735e+001dB,1.73661732182468e+002°)
1.75792361395867e+000	(-3.42416250591665e+001dB,1.73647096807206e+002°)
1.76197604641161e+000	(-3.42016120619880e+001dB,1.73632427111415e+002°)
1.76603782068614e+000	(-3.41615990125689e+001dB,1.73617723012922e+002°)
1.77010895831740e+000	(-3.41215859107399e+001dB,1.73602984429343e+002°)
1.77418948089014e+000	(-3.40815727563317e+001dB,1.73588211278080e+002°)
1.77827941003890e+000	(-3.40415595491747e+001dB,1.73573403476321e+002°)
1.78237876744807e+000	(-3.40015462890994e+001dB,1.73558560941040e+002°)
1.78648757485203e+000	(-3.39615329759361e+001dB,1.73543683588996e+002°)
1.79060585403527e+000	(-3.39215196095149e+001dB,1.73528771336732e+002°)
1.79473362683250e+000	(-3.38815061896661e+001dB,1.73513824100574e+002°)
1.79887091512876e+000	(-3.38414927162197e+001dB,1.73498841796633e+002°)
1.80301774085955e+000	(-3.38014791890056e+001dB,1.73483824340799e+002°)
1.80717412601090e+000	(-3.37614656078537e+001dB,1.73468771648746e+002°)
1.81134009261958e+000	(-3.37214519725940e+001dB,1.73453683635929e+002°)
1.81551566277311e+000	(-3.36814382830561e+001dB,1.73438560217582e+002°)
1.81970085860996e+000	(-3.36414245390699e+001dB,1.73423401308718e+002°)
1.82389570231961e+000	(-3.36014107404650e+001dB,1.73408206824133e+002°)
1.82810021614272e+000	(-3.35613968870711e+001dB,1.73392976678395e+002°)
1.83231442237119e+000	(-3.35213829787178e+001dB,1.73377710785855e+002°)
1.83653834334832e+000	(-3.34813690152348e+001dB,1.73362409060639e+002°)
1.84077200146893e+000	(-3.34413549964516e+001dB,1.73347071416647e+002°)
1.84501541917945e+000	(-3.34013409221979e+001dB,1.73331697767558e+002°)
1.84926861897805e+000	(-3.33613267923031e+001dB,1.73316288026825e+002°)
1.85353162341479e+000	(-3.33213126065970e+001dB,1.73300842107672e+002°)
1.85780445509167e+000	(-3.32812983649091e+001dB,1.73285359923101e+002°)
1.86208713666284e+000	(-3.32412840670690e+001dB,1.73269841385884e+002°)
1.86637969083464e+000	(-3.32012697129065e+001dB,1.73254286408566e+002°)
1.87068214036577e+000	(-3.31612553022512e+001dB,1.73238694903463e+002°)
