Freq.	V(out)
1.00000000000000e+000	(-2.12193739045166e+002dB,1.76379913633911e+002°)
1.00230523807790e+000	(-2.12153734449204e+002dB,1.76371634766736e+002°)
1.00461579027840e+000	(-2.12113729882611e+002dB,1.76363336596418e+002°)
1.00693166885180e+000	(-2.12073725231814e+002dB,1.76355019013455e+002°)
1.00925288607668e+000	(-2.12033720623412e+002dB,1.76346681989943e+002°)
1.01157945425990e+000	(-2.11993716003697e+002dB,1.76338325441141e+002°)
1.01391138573668e+000	(-2.11953711324429e+002dB,1.76329949385067e+002°)
1.01624869287070e+000	(-2.11913706670800e+002dB,1.76321553717193e+002°)
1.01859138805412e+000	(-2.11873701900206e+002dB,1.76313138469124e+002°)
1.02093948370768e+000	(-2.11833697204495e+002dB,1.76304703516993e+002°)
1.02329299228075e+000	(-2.11793692424147e+002dB,1.76296248853411e+002°)
1.02565192625141e+000	(-2.11753687682717e+002dB,1.76287774410862e+002°)
1.02801629812647e+000	(-2.11713682879991e+002dB,1.76279280194069e+002°)
1.03038612044162e+000	(-2.11673678044444e+002dB,1.76270766108817e+002°)
1.03276140576140e+000	(-2.11633673159741e+002dB,1.76262232120152e+002°)
1.03514216667934e+000	(-2.11593668311654e+002dB,1.76253678198403e+002°)
1.03752841581801e+000	(-2.11553663441159e+002dB,1.76245104251390e+002°)
1.03992016582906e+000	(-2.11513658517303e+002dB,1.76236510285025e+002°)
1.04231742939330e+000	(-2.11473653612667e+002dB,1.76227896208381e+002°)
1.04472021922080e+000	(-2.11433648679942e+002dB,1.76219262020715e+002°)
1.04712854805090e+000	(-2.11393643699844e+002dB,1.76210607657096e+002°)
1.04954242865232e+000	(-2.11353638731002e+002dB,1.76201933057829e+002°)
1.05196187382322e+000	(-2.11313633665893e+002dB,1.76193238204030e+002°)
1.05438689639126e+000	(-2.11273628664589e+002dB,1.76184522988307e+002°)
1.05681750921366e+000	(-2.11233623557556e+002dB,1.76175787446078e+002°)
1.05925372517729e+000	(-2.11193618487168e+002dB,1.76167031483966e+002°)
1.06169555719872e+000	(-2.11153613433333e+002dB,1.76158255020720e+002°)
1.06414301822431e+000	(-2.11113608286862e+002dB,1.76149458071642e+002°)
1.06659612123026e+000	(-2.11073603105950e+002dB,1.76140640576815e+002°)
1.06905487922266e+000	(-2.11033597953018e+002dB,1.76131802473496e+002°)
1.07151930523761e+000	(-2.10993592752494e+002dB,1.76122943682276e+002°)
1.07398941234124e+000	(-2.10953587529549e+002dB,1.76114064221462e+002°)
1.07646521362983e+000	(-2.10913582354040e+002dB,1.76105164002542e+002°)
1.07894672222983e+000	(-2.10873577050617e+002dB,1.76096242998818e+002°)
1.08143395129794e+000	(-2.10833571789970e+002dB,1.76087301141366e+002°)
1.08392691402120e+000	(-2.10793566472001e+002dB,1.76078338378282e+002°)
1.08642562361706e+000	(-2.10753561094151e+002dB,1.76069354707644e+002°)
1.08893009333343e+000	(-2.10713555700332e+002dB,1.76060350049193e+002°)
1.09144033644876e+000	(-2.10673550359106e+002dB,1.76051324301482e+002°)
1.09395636627209e+000	(-2.10633544944299e+002dB,1.76042277489099e+002°)
1.09647819614318e+000	(-2.10593539489671e+002dB,1.76033209544513e+002°)
1.09900583943252e+000	(-2.10553534073294e+002dB,1.76024120388913e+002°)
1.10153930954141e+000	(-2.10513528604476e+002dB,1.76015010001994e+002°)
1.10407861990207e+000	(-2.10473523105087e+002dB,1.76005878357370e+002°)
1.10662378397766e+000	(-2.10433517578309e+002dB,1.75996725364789e+002°)
1.10917481526240e+000	(-2.10393512030089e+002dB,1.75987550968642e+002°)
1.11173172728159e+000	(-2.10353506408630e+002dB,1.75978355167579e+002°)
1.11429453359173e+000	(-2.10313500856211e+002dB,1.75969137851421e+002°)
1.11686324778056e+000	(-2.10273495198520e+002dB,1.75959899022225e+002°)
1.11943788346715e+000	(-2.10233489563963e+002dB,1.75950638594695e+002°)
1.12201845430196e+000	(-2.10193483914568e+002dB,1.75941356534343e+002°)
1.12460497396692e+000	(-2.10153478216281e+002dB,1.75932052814218e+002°)
1.12719745617551e+000	(-2.10113472500559e+002dB,1.75922727316266e+002°)
1.12979591467280e+000	(-2.10073466722621e+002dB,1.75913380071913e+002°)
1.13240036323556e+000	(-2.10033460941916e+002dB,1.75904010976633e+002°)
1.13501081567231e+000	(-2.09993455139452e+002dB,1.75894619973227e+002°)
1.13762728582343e+000	(-2.09953449342216e+002dB,1.75885207033725e+002°)
1.14024978756117e+000	(-2.09913443497976e+002dB,1.75875772117656e+002°)
1.14287833478977e+000	(-2.09873437618674e+002dB,1.75866315163372e+002°)
1.14551294144553e+000	(-2.09833431723025e+002dB,1.75856836106995e+002°)
1.14815362149688e+000	(-2.09793425790581e+002dB,1.75847334912379e+002°)
1.15080038894443e+000	(-2.09753419865554e+002dB,1.75837811521767e+002°)
1.15345325782109e+000	(-2.09713413834762e+002dB,1.75828265911996e+002°)
1.15611224219210e+000	(-2.09673407850088e+002dB,1.75818697951684e+002°)
1.15877735615512e+000	(-2.09633401827261e+002dB,1.75809107663228e+002°)
1.16144861384034e+000	(-2.09593395764950e+002dB,1.75799494966177e+002°)
1.16412602941049e+000	(-2.09553389685909e+002dB,1.75789859826113e+002°)
1.16680961706096e+000	(-2.09513383576683e+002dB,1.75780202154874e+002°)
1.16949939101987e+000	(-2.09473377467664e+002dB,1.75770521948729e+002°)
1.17219536554813e+000	(-2.09433371312377e+002dB,1.75760819106139e+002°)
1.17489755493953e+000	(-2.09393365092286e+002dB,1.75751093610827e+002°)
1.17760597352080e+000	(-2.09353358827518e+002dB,1.75741345411861e+002°)
1.18032063565173e+000	(-2.09313352619540e+002dB,1.75731574412216e+002°)
1.18304155572516e+000	(-2.09273346344053e+002dB,1.75721780603905e+002°)
1.18576874816716e+000	(-2.09233340070852e+002dB,1.75711963900982e+002°)
1.18850222743702e+000	(-2.09193333741207e+002dB,1.75702124282297e+002°)
1.19124200802737e+000	(-2.09153327356897e+002dB,1.75692261691204e+002°)
1.19398810446427e+000	(-2.09113320997711e+002dB,1.75682376041883e+002°)
1.19674053130724e+000	(-2.09073314561543e+002dB,1.75672467310384e+002°)
1.19949930314938e+000	(-2.09033308152315e+002dB,1.75662535401878e+002°)
1.20226443461741e+000	(-2.08993301658985e+002dB,1.75652580332352e+002°)
1.20503594037179e+000	(-2.08953295191580e+002dB,1.75642601984924e+002°)
1.20781383510678e+000	(-2.08913288646895e+002dB,1.75632600337578e+002°)
1.21059813355048e+000	(-2.08873282088163e+002dB,1.75622575317203e+002°)
1.21338885046497e+000	(-2.08833275509862e+002dB,1.75612526901939e+002°)
1.21618600064636e+000	(-2.08793268927781e+002dB,1.75602454979455e+002°)
1.21898959892486e+000	(-2.08753262272902e+002dB,1.75592359550273e+002°)
1.22179966016487e+000	(-2.08713255622001e+002dB,1.75582240542486e+002°)
1.22461619926504e+000	(-2.08673248931011e+002dB,1.75572097890114e+002°)
1.22743923115840e+000	(-2.08633242195636e+002dB,1.75561931545871e+002°)
1.23026877081238e+000	(-2.08593235432416e+002dB,1.75551741461691e+002°)
1.23310483322890e+000	(-2.08553228644404e+002dB,1.75541527555334e+002°)
1.23594743344451e+000	(-2.08513221837825e+002dB,1.75531289803945e+002°)
1.23879658653036e+000	(-2.08473214988132e+002dB,1.75521028145062e+002°)
1.24165230759241e+000	(-2.08433208143790e+002dB,1.75510742496216e+002°)
1.24451461177138e+000	(-2.08393201218977e+002dB,1.75500432818481e+002°)
1.24738351424294e+000	(-2.08353194320120e+002dB,1.75490099055302e+002°)
1.25025903021771e+000	(-2.08313187386770e+002dB,1.75479741160521e+002°)
1.25314117494141e+000	(-2.08273180345727e+002dB,1.75469359084702e+002°)
1.25602996369487e+000	(-2.08233173313545e+002dB,1.75458952745822e+002°)
1.25892541179416e+000	(-2.08193166292138e+002dB,1.75448522075786e+002°)
1.26182753459066e+000	(-2.08153159185430e+002dB,1.75438067039581e+002°)
1.26473634747115e+000	(-2.08113152087082e+002dB,1.75427587624022e+002°)
1.26765186585784e+000	(-2.08073144909484e+002dB,1.75417083674070e+002°)
1.27057410520854e+000	(-2.08033137736342e+002dB,1.75406555214910e+002°)
1.27350308101666e+000	(-2.07993130537220e+002dB,1.75396002150371e+002°)
1.27643880881134e+000	(-2.07953123336449e+002dB,1.75385424461276e+002°)
1.27938130415752e+000	(-2.07913116030133e+002dB,1.75374822018274e+002°)
1.28233058265602e+000	(-2.07873108747251e+002dB,1.75364194820112e+002°)
1.28528665994361e+000	(-2.07833101408975e+002dB,1.75353542825607e+002°)
1.28824955169313e+000	(-2.07793094037075e+002dB,1.75342865884658e+002°)
1.29121927361353e+000	(-2.07753086657235e+002dB,1.75332164053213e+002°)
1.29419584144998e+000	(-2.07713079187501e+002dB,1.75321437179639e+002°)
1.29717927098395e+000	(-2.07673071801925e+002dB,1.75310685259729e+002°)
1.30016957803328e+000	(-2.07633064299727e+002dB,1.75299908213901e+002°)
1.30316677845229e+000	(-2.07593056800679e+002dB,1.75289106009329e+002°)
1.30617088813183e+000	(-2.07553049205960e+002dB,1.75278278560855e+002°)
1.30918192299940e+000	(-2.07513041610057e+002dB,1.75267425804372e+002°)
1.31219989901920e+000	(-2.07473033985708e+002dB,1.75256547701056e+002°)
1.31522483219223e+000	(-2.07433026323890e+002dB,1.75245644200215e+002°)
1.31825673855640e+000	(-2.07393018650796e+002dB,1.75234715191576e+002°)
1.32129563418657e+000	(-2.07353010966499e+002dB,1.75223760653239e+002°)
1.32434153519466e+000	(-2.07313003197189e+002dB,1.75212780526649e+002°)
1.32739445772973e+000	(-2.07272995381020e+002dB,1.75201774764830e+002°)
1.33045441797808e+000	(-2.07232987587375e+002dB,1.75190743251877e+002°)
1.33352143216332e+000	(-2.07192979711294e+002dB,1.75179685991668e+002°)
1.33659551654643e+000	(-2.07152971844442e+002dB,1.75168602877144e+002°)
1.33967668742593e+000	(-2.07112963918716e+002dB,1.75157493851576e+002°)
1.34276496113786e+000	(-2.07072955988432e+002dB,1.75146358887601e+002°)
1.34586035405594e+000	(-2.07032947994214e+002dB,1.75135197908910e+002°)
1.34896288259164e+000	(-2.06992939981934e+002dB,1.75124010828288e+002°)
1.35207256319427e+000	(-2.06952931899935e+002dB,1.75112797624306e+002°)
1.35518941235103e+000	(-2.06912923801762e+002dB,1.75101558227062e+002°)
1.35831344658715e+000	(-2.06872915672095e+002dB,1.75090292556639e+002°)
1.36144468246594e+000	(-2.06832907527216e+002dB,1.75079000561296e+002°)
1.36458313658892e+000	(-2.06792899373709e+002dB,1.75067682159244e+002°)
1.36772882559584e+000	(-2.06752891078965e+002dB,1.75056337323538e+002°)
1.37088176616484e+000	(-2.06712882799642e+002dB,1.75044966002567e+002°)
1.37404197501251e+000	(-2.06672874552024e+002dB,1.75033568036387e+002°)
1.37720946889394e+000	(-2.06632866216233e+002dB,1.75022143482998e+002°)
1.38038426460288e+000	(-2.06592857830989e+002dB,1.75010692216012e+002°)
1.38356637897177e+000	(-2.06552849396697e+002dB,1.74999214223175e+002°)
1.38675582887188e+000	(-2.06512840971790e+002dB,1.74987709354488e+002°)
1.38995263121334e+000	(-2.06472832440867e+002dB,1.74976177641313e+002°)
1.39315680294529e+000	(-2.06432823951234e+002dB,1.74964618938794e+002°)
1.39636836105593e+000	(-2.06392815394252e+002dB,1.74953033239597e+002°)
1.39958732257261e+000	(-2.06352806829164e+002dB,1.74941420450396e+002°)
1.40281370456195e+000	(-2.06312798209295e+002dB,1.74929780494542e+002°)
1.40604752412990e+000	(-2.06272789521893e+002dB,1.74918113376944e+002°)
1.40928879842186e+000	(-2.06232780806439e+002dB,1.74906418971124e+002°)
1.41253754462274e+000	(-2.06192772057681e+002dB,1.74894697232957e+002°)
1.41579377995707e+000	(-2.06152763323227e+002dB,1.74882948076405e+002°)
1.41905752168908e+000	(-2.06112754549806e+002dB,1.74871171453516e+002°)
1.42232878712281e+000	(-2.06072745688488e+002dB,1.74859367314478e+002°)
1.42560759360218e+000	(-2.06032736797537e+002dB,1.74847535558078e+002°)
1.42889395851109e+000	(-2.05992727838517e+002dB,1.74835676205495e+002°)
1.43218789927353e+000	(-2.05952718874910e+002dB,1.74823789077492e+002°)
1.43548943335364e+000	(-2.05912709925016e+002dB,1.74811874173376e+002°)
1.43879857825583e+000	(-2.05872700880607e+002dB,1.74799931387692e+002°)
1.44211535152486e+000	(-2.05832691793500e+002dB,1.74787960711738e+002°)
1.44543977074592e+000	(-2.05792682615924e+002dB,1.74775962080194e+002°)
1.44877185354475e+000	(-2.05752673530019e+002dB,1.74763935302297e+002°)
1.45211161758773e+000	(-2.05712664295725e+002dB,1.74751880515642e+002°)
1.45545908058195e+000	(-2.05672655050598e+002dB,1.74739797484583e+002°)
1.45881426027534e+000	(-2.05632645836728e+002dB,1.74727686148724e+002°)
1.46217717445671e+000	(-2.05592636477474e+002dB,1.74715546600818e+002°)
1.46554784095590e+000	(-2.05552627192653e+002dB,1.74703378570554e+002°)
1.46892627764385e+000	(-2.05512617766105e+002dB,1.74691182168728e+002°)
1.47231250243271e+000	(-2.05472608375253e+002dB,1.74678957185654e+002°)
1.47570653327588e+000	(-2.05432598932364e+002dB,1.74666703635174e+002°)
1.47910838816819e+000	(-2.05392589379306e+002dB,1.74654421456340e+002°)
1.48251808514594e+000	(-2.05352579854002e+002dB,1.74642110518747e+002°)
1.48593564228699e+000	(-2.05312570257706e+002dB,1.74629770809978e+002°)
1.48936107771090e+000	(-2.05272560614136e+002dB,1.74617402243834e+002°)
1.49279440957898e+000	(-2.05232550928316e+002dB,1.74605004737929e+002°)
1.49623565609442e+000	(-2.05192541255374e+002dB,1.74592578241040e+002°)
1.49968483550236e+000	(-2.05152531487747e+002dB,1.74580122695131e+002°)
1.50314196609001e+000	(-2.05112521710991e+002dB,1.74567637994856e+002°)
1.50660706618673e+000	(-2.05072511874051e+002dB,1.74555124102850e+002°)
1.51008015416413e+000	(-2.05032501975904e+002dB,1.74542580962131e+002°)
1.51356124843619e+000	(-2.04992492086512e+002dB,1.74530008415942e+002°)
1.51705036745932e+000	(-2.04952482098380e+002dB,1.74517406527145e+002°)
1.52054752973248e+000	(-2.04912472157521e+002dB,1.74504775106153e+002°)
1.52405275379728e+000	(-2.04872462093958e+002dB,1.74492114165840e+002°)
1.52756605823806e+000	(-2.04832452016378e+002dB,1.74479423602862e+002°)
1.53108746168202e+000	(-2.04792441853480e+002dB,1.74466703392353e+002°)
1.53461698279928e+000	(-2.04752431718936e+002dB,1.74453953357577e+002°)
1.53815464030302e+000	(-2.04712421460450e+002dB,1.74441173551441e+002°)
1.54170045294954e+000	(-2.04672411242573e+002dB,1.74428363779278e+002°)
1.54525443953840e+000	(-2.04632400965763e+002dB,1.74415524057741e+002°)
1.54881661891247e+000	(-2.04592390622652e+002dB,1.74402654299497e+002°)
1.55238700995807e+000	(-2.04552380232794e+002dB,1.74389754460196e+002°)
1.55596563160506e+000	(-2.04512369817812e+002dB,1.74376824396203e+002°)
1.55955250282694e+000	(-2.04472359338124e+002dB,1.74363864088628e+002°)
1.56314764264094e+000	(-2.04432348823964e+002dB,1.74350873468394e+002°)
1.56675107010813e+000	(-2.04392338262728e+002dB,1.74337852407652e+002°)
1.57036280433354e+000	(-2.04352327691647e+002dB,1.74324800848925e+002°)
1.57398286446620e+000	(-2.04312317043294e+002dB,1.74311718805976e+002°)
1.57761126969933e+000	(-2.04272306423943e+002dB,1.74298606093524e+002°)
1.58124803927037e+000	(-2.04232295646267e+002dB,1.74285462767959e+002°)
1.58489319246110e+000	(-2.04192284867060e+002dB,1.74272288655034e+002°)
1.58854674859776e+000	(-2.04152274052981e+002dB,1.74259083682546e+002°)
1.59220872705115e+000	(-2.04112263198811e+002dB,1.74245847790964e+002°)
1.59587914723672e+000	(-2.04072252259682e+002dB,1.74232580959321e+002°)
1.59955802861465e+000	(-2.04032241258183e+002dB,1.74219283083298e+002°)
1.60324539069002e+000	(-2.03992230320259e+002dB,1.74205953984765e+002°)
1.60694125301286e+000	(-2.03952219311761e+002dB,1.74192593740821e+002°)
1.61064563517825e+000	(-2.03912208200227e+002dB,1.74179202203811e+002°)
1.61435855682647e+000	(-2.03872197063855e+002dB,1.74165779317765e+002°)
1.61808003764305e+000	(-2.03832185901282e+002dB,1.74152325008126e+002°)
1.62181009735891e+000	(-2.03792174651801e+002dB,1.74138839203052e+002°)
1.62554875575047e+000	(-2.03752163362378e+002dB,1.74125321838021e+002°)
1.62929603263970e+000	(-2.03712152019941e+002dB,1.74111772770224e+002°)
1.63305194789432e+000	(-2.03672140678662e+002dB,1.74098192021549e+002°)
1.63681652142779e+000	(-2.03632129233350e+002dB,1.74084579455373e+002°)
1.64058977319952e+000	(-2.03592117744792e+002dB,1.74070935033922e+002°)
1.64437172321491e+000	(-2.03552106292037e+002dB,1.74057258603596e+002°)
1.64816239152549e+000	(-2.03512094745882e+002dB,1.74043550167482e+002°)
1.65196179822900e+000	(-2.03472083116751e+002dB,1.74029809631096e+002°)
1.65576996346951e+000	(-2.03432071476550e+002dB,1.74016036934046e+002°)
1.65958690743754e+000	(-2.03392059783076e+002dB,1.74002231916161e+002°)
1.66341265037015e+000	(-2.03352048058413e+002dB,1.73988394610079e+002°)
1.66724721255104e+000	(-2.03312036248432e+002dB,1.73974524875200e+002°)
1.67109061431069e+000	(-2.03272024438870e+002dB,1.73960622615857e+002°)
1.67494287602642e+000	(-2.03232012509675e+002dB,1.73946687859548e+002°)
1.67880401812254e+000	(-2.03192000587476e+002dB,1.73932720382136e+002°)
1.68267406107045e+000	(-2.03151988580526e+002dB,1.73918720251341e+002°)
1.68655302538872e+000	(-2.03111976565316e+002dB,1.73904687242221e+002°)
1.69044093164324e+000	(-2.03071964457116e+002dB,1.73890621398044e+002°)
1.69433780044731e+000	(-2.03031952323329e+002dB,1.73876522636335e+002°)
1.69824365246172e+000	(-2.02991940156635e+002dB,1.73862390757109e+002°)
1.70215850839493e+000	(-2.02951927921859e+002dB,1.73848225809177e+002°)
1.70608238900310e+000	(-2.02911915619920e+002dB,1.73834027614864e+002°)
1.71001531509027e+000	(-2.02871903314684e+002dB,1.73819796194453e+002°)
1.71395730750840e+000	(-2.02831890921922e+002dB,1.73805531399279e+002°)
1.71790838715757e+000	(-2.02791878457821e+002dB,1.73791233204005e+002°)
1.72186857498599e+000	(-2.02751866008859e+002dB,1.73776901427755e+002°)
1.72583789199018e+000	(-2.02711853435932e+002dB,1.73762536124828e+002°)
1.72981635921508e+000	(-2.02671840868538e+002dB,1.73748137080954e+002°)
1.73380399775412e+000	(-2.02631828228882e+002dB,1.73733704348386e+002°)
1.73780082874935e+000	(-2.02591815545394e+002dB,1.73719237770005e+002°)
1.74180687339159e+000	(-2.02551802782677e+002dB,1.73704737279060e+002°)
1.74582215292048e+000	(-2.02511790047752e+002dB,1.73690202734077e+002°)
1.74984668862464e+000	(-2.02471777207123e+002dB,1.73675634152317e+002°)
1.75388050184174e+000	(-2.02431764270340e+002dB,1.73661031419428e+002°)
1.75792361395867e+000	(-2.02391751353621e+002dB,1.73646394414727e+002°)
1.76197604641161e+000	(-2.02351738318887e+002dB,1.73631723116565e+002°)
1.76603782068614e+000	(-2.02311725304607e+002dB,1.73617017372886e+002°)
1.77010895831740e+000	(-2.02271712198621e+002dB,1.73602277172807e+002°)
1.77418948089014e+000	(-2.02231699026822e+002dB,1.73587502376817e+002°)
1.77827941003890e+000	(-2.02191685853548e+002dB,1.73572692942277e+002°)
1.78237876744807e+000	(-2.02151672593753e+002dB,1.73557848770623e+002°)
1.78648757485203e+000	(-2.02111659284316e+002dB,1.73542969771885e+002°)
1.79060585403527e+000	(-2.02071645898747e+002dB,1.73528055874603e+002°)
1.79473362683250e+000	(-2.02031632480957e+002dB,1.73513107011731e+002°)
1.79887091512876e+000	(-2.01991619043417e+002dB,1.73498123030020e+002°)
1.80301774085955e+000	(-2.01951605488402e+002dB,1.73483103915167e+002°)
1.80717412601090e+000	(-2.01911591886768e+002dB,1.73468049581836e+002°)
1.81134009261958e+000	(-2.01871578277360e+002dB,1.73452959888127e+002°)
1.81551566277311e+000	(-2.01831564574734e+002dB,1.73437834814165e+002°)
1.81970085860996e+000	(-2.01791550841367e+002dB,1.73422674216136e+002°)
1.82389570231961e+000	(-2.01751537047456e+002dB,1.73407478062336e+002°)
1.82810021614272e+000	(-2.01711523182204e+002dB,1.73392246240895e+002°)
1.83231442237119e+000	(-2.01671509255456e+002dB,1.73376978692758e+002°)
1.83653834334832e+000	(-2.01631495277985e+002dB,1.73361675280511e+002°)
1.84077200146893e+000	(-2.01591481297753e+002dB,1.73346335905724e+002°)
1.84501541917945e+000	(-2.01551467224282e+002dB,1.73330960565265e+002°)
1.84926861897805e+000	(-2.01511453095773e+002dB,1.73315549144587e+002°)
1.85353162341479e+000	(-2.01471438875440e+002dB,1.73300101514523e+002°)
1.85780445509167e+000	(-2.01431424655407e+002dB,1.73284617625933e+002°)
1.86208713666284e+000	(-2.01391410375307e+002dB,1.73269097372023e+002°)
1.86637969083464e+000	(-2.01351395978510e+002dB,1.73253540683071e+002°)
1.87068214036577e+000	(-2.01311381612246e+002dB,1.73237947448682e+002°)
